#  HZ   S   RI   R     50.00 
! Rohde & Schwarz Vector Network Analyzer 
! Rohde-Schwarz,ZNA50-4Port,1332450054101417,2.92
! Created: UTC 11/7/2024, 7:53:19 AM
! freq[Hz]                re:S11                  im:S11                  re:S21                  im:S21                  re:S12                  im:S12                  re:S22                  im:S22
 7.500000000000000E+10   9.015350552836365E-2   -1.763600682359275E-1    1.609511460665255E-3    2.616793697130991E-3    2.539524654435462E-3   -1.686030989356689E-3   -1.108575170056445E-1   -1.489869259357608E-1
 7.503500000000000E+10  -6.729337326614129E-2   -1.927994441832092E-1    3.107915071008476E-3   -1.982043841793442E-4   -2.204336190682015E-4   -3.097040357383727E-3   -2.194044030147015E-1   -3.567488151626325E-2
 7.507000000000000E+10  -1.502599797159143E-1   -7.074029041523441E-2    1.492820410938950E-3   -2.838643992272369E-3   -2.892040903207409E-3   -1.369441975403926E-3   -1.812725653296943E-1    1.158138566684894E-1
 7.510500000000000E+10  -8.290790018662884E-2    6.320702281638080E-2   -1.808926081423043E-3   -2.818965479590254E-3   -2.750234401371867E-3    1.943056439802578E-3   -2.896447471435721E-2    1.643826009473262E-1
 7.514000000000000E+10   6.982709693172770E-2    6.752295630711366E-2   -3.514538317169819E-3    3.267692588503040E-4    4.335023866472945E-4    3.528252400665793E-3    9.517703704727561E-2    5.329798754649737E-2
 7.517500000000000E+10   1.420133735886769E-1   -6.747852520956356E-2   -1.380283200687269E-3    3.413827143001285E-3    3.524620452013212E-3    1.310578961039551E-3    6.026021250196942E-2   -1.118138629788382E-1
 7.521000000000000E+10   5.363447777144084E-2   -1.919467510870775E-1    2.526678513747573E-3    2.848866363136581E-3    2.882306530008916E-3   -2.621136543715449E-3   -9.797556565474694E-2   -1.610278949028369E-1
 7.524500000000000E+10  -9.631194472511941E-2   -1.718162449593160E-1    3.815102629656399E-3   -9.990689865750327E-4   -1.000614141670383E-3   -3.893879622167800E-3   -2.110332142746457E-1   -4.905437885568344E-2
 7.528000000000000E+10  -1.440607779338822E-1   -3.165048206147352E-2    8.337676087782087E-4   -4.001220759676809E-3   -4.058192787548731E-3   -9.515979607496116E-4   -1.623661910929820E-1    9.897422134751974E-2
 7.531500000000000E+10  -3.620878699193247E-2    6.788705695868834E-2   -3.361770013829317E-3   -2.558740342599355E-3   -2.717288250153892E-3    3.359934911737588E-3   -3.074809893448362E-3    1.185004763601807E-1
 7.535000000000000E+10   9.911699502964963E-2    4.175193622004002E-3   -3.780227048543220E-3    1.991203489045934E-3    1.981639467931334E-3    3.907658616914446E-3    8.695639193481237E-2   -2.209148164950450E-2
 7.538500000000000E+10   9.220905325601640E-2   -1.489452498003845E-1    1.300239112989889E-4    4.223960796607181E-3    4.309380399114236E-3   -1.303210826765255E-4    3.288674042466834E-3   -1.686999678285618E-1
 7.542000000000000E+10  -4.903229481257015E-2   -2.066138807599987E-1    3.716499872516205E-3    1.776219940281248E-3    1.767827334738336E-3   -3.793778949474342E-3   -1.613738375537385E-1   -1.672228856246941E-1
 7.545500000000000E+10  -1.642693828322510E-1   -1.095306493908745E-1    3.293391282611265E-3   -2.366139815026851E-3   -2.496334041943037E-3   -3.297275582680566E-3   -2.388725924311943E-1   -2.850168939599023E-2
 7.549000000000000E+10  -1.319134658408426E-1    3.681369968777606E-2   -5.005829393482898E-4   -3.966226589618444E-3   -4.051853116613391E-3    7.318221056667689E-4   -1.555710135471541E-1    1.042516066109659E-1
 7.552500000000000E+10   1.390730852563165E-2    7.242246515727961E-2   -3.734769289719253E-3   -1.384343089776818E-3   -1.118864613605344E-3    3.946759580573888E-3    2.826472139149359E-3    9.283402317151937E-2
 7.556000000000000E+10   1.080470506823219E-1   -4.560990703800895E-2   -2.840083960405127E-3    2.701403512744581E-3    3.068501698980822E-3    2.615370784029357E-3    6.645355087818162E-2   -5.260868919146029E-2
 7.559500000000000E+10   3.985065219470574E-2   -1.802856581278231E-1    1.037631592831440E-3    3.556424044098264E-3    3.515590037234263E-3   -1.457057438500733E-3   -3.004187585100655E-2   -1.744380256757334E-1
 7.563000000000000E+10  -1.091150770094081E-1   -1.755484537523813E-1    3.479442655741099E-3    7.348813434116153E-4    3.751637454107775E-4   -3.659506902443921E-3   -1.757227290692650E-1   -1.477167602555970E-1
 7.566500000000000E+10  -1.701894741271148E-1   -4.352166246746495E-2    2.128011573593280E-3   -2.486907598196582E-3   -2.805775905518634E-3   -1.924810909925434E-3   -2.222282038353145E-1   -9.875671508804642E-3
 7.570000000000000E+10  -8.112226025585004E-2    6.893980208930171E-2   -1.101304384563784E-3   -3.012771947443478E-3   -2.975217469824619E-3    1.452020883759647E-3   -1.244267533173064E-1    1.035724919678754E-1
 7.573500000000000E+10   5.915108924797204E-2    3.791011623612258E-2   -3.013902213494672E-3   -5.491553966378689E-4   -2.827673731538263E-4    3.143911648496690E-3    2.998750082394708E-2    8.009652491216561E-2
 7.577000000000000E+10   9.351959045942046E-2   -1.031390731299907E-1   -1.894420432772060E-3    2.360374547513183E-3    2.571380246454821E-3    1.748780477833048E-3    9.801289650858033E-2   -6.541413366882178E-2
 7.580500000000000E+10  -1.329535145497541E-2   -2.021086409266554E-1    9.726861116338193E-4    2.675571552221121E-3    2.723450542028903E-3   -1.158304047310065E-3    1.609360170684940E-2   -1.993742225921479E-1
 7.584000000000000E+10  -1.522540065174970E-1   -1.623065923599371E-1    2.746728452255814E-3    5.541573215363971E-4    4.494512782488506E-4   -2.880084406407245E-3   -1.337766429973831E-1   -2.056932555567747E-1
 7.587500000000000E+10  -1.910560789793721E-1   -2.152066758755512E-2    1.863539032932286E-3   -2.008826817491381E-3   -2.139521793700094E-3   -1.860617800356353E-3   -2.184093557842595E-1   -8.863889413282210E-2
 7.591000000000000E+10  -8.948062964217258E-2    8.076437654928750E-2   -7.489667394548403E-4   -2.723004148405502E-3   -2.770198616609439E-3    8.425930186762995E-4   -1.666678790325263E-1    4.749590620799290E-2
 7.594500000000000E+10   4.985604573021511E-2    3.755213166156952E-2   -2.828957448417823E-3   -7.053907358686355E-4   -6.235906721404901E-4    2.903083923111365E-3   -1.885315634086989E-2    7.678779393679200E-2
 7.598000000000000E+10   7.245627956862612E-2   -1.080296698524804E-1   -2.007436709910422E-3    2.044000505841227E-3    2.160988996468744E-3    1.997625951144044E-3    8.592032850019263E-2   -3.599510087792526E-2
 7.601500000000000E+10  -4.604530872306817E-2   -1.937311411110857E-1    7.370930909533914E-4    2.729182767293559E-3    2.784512809314505E-3   -8.677117594144062E-4    4.360551013002602E-2   -1.849439189606324E-1
 7.605000000000000E+10  -1.765182252780247E-1   -1.329841736566692E-1    2.643048257497438E-3    8.404462460224060E-4    7.090205635717534E-4   -2.761740804246344E-3   -1.034109047075194E-1   -2.276789115866865E-1
 7.608500000000000E+10  -1.935455117557870E-1    8.230892736207383E-3    2.110146945544236E-3   -1.782876340624840E-3   -1.974113162437844E-3   -2.051776948348733E-3   -2.200381640849909E-1   -1.280744714126708E-1
 7.612000000000000E+10  -7.969832847678865E-2    9.772182852905489E-2   -4.085926501933449E-4   -2.838586570147655E-3   -2.886351668320441E-3    6.464640337454266E-4   -2.065583437112272E-1    2.695105791339369E-2
 7.615500000000000E+10   5.806635451478868E-2    4.403548576432142E-2   -2.692318870732770E-3   -1.238753076944030E-3   -9.971675160113725E-4    2.892698281951008E-3   -6.764374737708191E-2    1.097125473715770E-1
 7.619000000000000E+10   7.977366646398476E-2   -1.058348073705383E-1   -2.582244238137252E-3    1.726234623064347E-3    2.082932680504882E-3    2.433681830733775E-3    8.490609292221964E-2    4.082348958292030E-2
 7.622500000000000E+10  -4.233334735165784E-2   -1.978410033533065E-1    2.304227322241896E-4    3.206072164971216E-3    3.243468165343987E-3   -6.574054752215660E-4    1.110485896023599E-1   -1.254470371657551E-1
 7.626000000000000E+10  -1.806027593967575E-1   -1.388574167653024E-1    2.951374564851823E-3    1.456950553969518E-3    1.073291545717529E-3   -3.202321362973537E-3   -1.513647302048988E-2   -2.331847723449167E-1
 7.629500000000000E+10  -2.017409483059275E-1    6.868606349955431E-3    2.842681212981208E-3   -1.858918324397376E-3   -2.246067137582735E-3   -2.671779667497920E-3   -1.682279814611643E-1   -1.806524495955736E-1
 7.633000000000000E+10  -8.822680490140170E-2    9.800446729133171E-2   -2.174807912845128E-4   -3.596405954921017E-3   -3.634629521250128E-3    5.844155597535073E-4   -2.011215417915736E-1   -2.260737923973133E-2
 7.636500000000000E+10   4.482664130726408E-2    4.039778664692105E-2   -3.467361527965822E-3   -1.591680054135646E-3   -1.347959458764540E-3    3.668812731491381E-3   -7.827862225658849E-2    8.702863958567815E-2
 7.640000000000000E+10   5.047753467614604E-2   -1.069541500576757E-1   -3.076634875973211E-3    2.487594979394487E-3    2.742087896673963E-3    3.013873817235283E-3    8.039358862491763E-2    2.998369272911668E-2
 7.643500000000000E+10  -8.232595327962269E-2   -1.772933051068393E-1    8.461926815655237E-4    3.863917211073858E-3    3.930155763016767E-3   -1.038460078204093E-3    1.036735218106908E-1   -1.377075062113480E-1
 7.647000000000000E+10  -2.072023788585153E-1   -9.389489722675877E-2    3.745377886186684E-3    1.071045154482689E-3    9.639373561536417E-4   -3.865163807932712E-3   -2.833605917975968E-2   -2.362529284260703E-1
 7.650500000000000E+10  -1.999838279621996E-1    5.558168424261408E-2    2.767380079844895E-3   -2.717981548725117E-3   -2.834230938215103E-3   -2.756883928575947E-3   -1.737972749883136E-1   -1.745147111801437E-1
 7.654000000000000E+10  -6.920988885089328E-2    1.277870186286348E-1   -1.056523259702690E-3   -3.783853776650753E-3   -3.846638201069358E-3    1.157113926562879E-3   -1.925568593832621E-1   -2.227934207246560E-2
 7.657500000000000E+10   5.846523360595964E-2    4.850762748456783E-2   -3.893024131341950E-3   -8.740926296915236E-4   -7.773665592124186E-4    4.003183544037173E-3   -7.270790742509940E-2    6.642060485730970E-2
 7.661000000000000E+10   4.399939511005965E-2   -1.028113938672139E-1   -2.615810024872282E-3    3.001625082115280E-3    3.185588892823291E-3    2.525741953539607E-3    5.885975902963385E-2    2.664095004756580E-3
 7.664500000000000E+10  -9.816803946656716E-2   -1.574762125861631E-1    1.271608230020263E-3    3.586818079914077E-3    3.561604526616848E-3   -1.550719651385210E-3    6.118301846431178E-2   -1.366580086840904E-1
 7.668000000000000E+10  -2.119617756540891E-1   -5.930308458843914E-2    3.553588817166076E-3    7.252386712225260E-4    3.464820273087312E-4   -3.630826171003277E-3   -5.249952239511677E-2   -1.960353165277244E-1
 7.671500000000000E+10  -1.862400643626722E-1    8.644490090635332E-2    2.337230918675760E-3   -2.679887640429738E-3   -2.957998174993720E-3   -1.992490793106707E-3   -1.525808828486247E-1   -1.301409912978328E-1
 7.675000000000000E+10  -4.878261176611860E-2    1.371268884069528E-1   -9.824629362147905E-4   -3.232836549666377E-3   -3.086128949784720E-3    1.414720327399980E-3   -1.450828893021455E-1   -9.237755321287565E-3
 7.678500000000000E+10   6.289128082090133E-2    3.666234867616303E-2   -3.155463549135474E-3   -6.592164212053215E-4   -2.430969579659551E-4    3.229344246879346E-3   -3.621223295179520E-2    4.783621775050164E-2
 7.682000000000000E+10   2.392054405054940E-2   -1.112617019738640E-1   -2.216048817520843E-3    2.159122830385427E-3    2.449438776214759E-3    1.947364990326980E-3    6.802227650680973E-2   -1.356684283811664E-2
 7.685500000000000E+10  -1.253144095792182E-1   -1.450698554557099E-1    7.504574266351538E-4    2.860121182463086E-3    2.810530440229841E-3   -1.091492928497981E-3    7.822089577819799E-2   -1.332726898503155E-1
 7.689000000000000E+10  -2.285558943755874E-1   -3.327533385642620E-2    2.775632772396900E-3    1.031730204580763E-3    8.002114255224021E-4   -2.939717392690373E-3   -9.805505478620318E-3   -2.042314059363825E-1
 7.692500000000000E+10  -1.932716941448528E-1    1.126970157829497E-1    2.334826688865835E-3   -1.601382631824855E-3   -1.772603184426159E-3   -2.294383737380159E-3   -1.133635020362107E-1   -1.759926471031835E-1
 7.696000000000000E+10  -5.224042600860178E-2    1.650864188031740E-1   -5.799522074540636E-5   -3.100113347212735E-3   -3.117579385197062E-3    1.793283349492662E-4   -1.461724014235560E-1   -7.435536313639865E-2
 7.699500000000000E+10   6.428811746186336E-2    6.869361226964278E-2   -2.669278708005880E-3   -1.402326104935051E-3   -1.348800635181872E-3    2.680300448336804E-3   -7.967364703078050E-2    1.068657062513438E-2
 7.703000000000000E+10   2.710827894904990E-2   -8.372503040545755E-2   -2.757247214901812E-3    1.813952735157107E-3    1.832686990486611E-3    2.710772325439500E-3    3.193763321027611E-2   -2.634287667754072E-3
 7.706500000000000E+10  -1.297938328721017E-1   -1.185868907732167E-1    5.974402271739655E-5    3.315295257204687E-3    3.253191103584656E-3   -1.301594835932772E-4    8.579641761348346E-2   -1.008058456452755E-1
 7.710000000000000E+10  -2.336937897259259E-1    3.798961703409436E-3    2.627276482975522E-3    1.609491482052103E-3    1.490086437228314E-3   -2.613785736467667E-3    3.347717402761864E-2   -1.990721867940495E-1
 7.713500000000000E+10  -1.826102529740524E-1    1.535762915641721E-1    2.930675941100456E-3   -1.123654218472028E-3   -1.208178941471784E-3   -2.805486878500006E-3   -7.598147001993007E-2   -2.186287133211440E-1
 7.717000000000000E+10  -2.844580831122549E-2    1.888492661192651E-1    7.446823612559948E-4   -3.172457129727338E-3   -3.159225025527920E-3   -5.587708546934073E-4   -1.584790384879886E-1   -1.351441141162337E-1
 7.720500000000000E+10   7.984711882118763E-2    7.351308524338228E-2   -2.364657928354684E-3   -2.571823364692955E-3   -2.393940836688679E-3    2.592185197670275E-3   -1.419164482239490E-1   -1.072532093302372E-2
 7.724000000000000E+10   2.992927311886826E-2   -7.872452127463429E-2   -3.609844704780617E-3    6.895398878286593E-4    1.112317806817724E-3    3.581146415806784E-3   -2.173055267304696E-2    5.614748271931995E-2
 7.727500000000000E+10  -1.292172514498949E-1   -1.069168422022319E-1   -1.365310510053008E-3    3.563049419543447E-3    3.817342185695760E-3    8.622913553980431E-4    1.091835651521484E-1   -3.324864239304846E-3
 7.731000000000000E+10  -2.309830370961921E-1    1.586314551520520E-2    2.471822843651904E-3    3.105376632927090E-3    2.781032072587170E-3   -3.032108014688887E-3    1.386152030990916E-1   -1.457797075560957E-1
 7.734500000000000E+10  -1.797564763540339E-1    1.632301007815405E-1    4.135626358192912E-3   -5.281940046786317E-4   -1.219543946619712E-3   -4.150569659667855E-3    3.759807985691971E-2   -2.492916427989883E-1
 7.738000000000000E+10  -2.842434836757173E-2    1.978095787756017E-1    1.737182765237719E-3   -4.104100597896298E-3   -4.455508473625996E-3   -1.059530198650980E-3   -1.071608344237355E-1   -2.185600501067977E-1
 7.741500000000000E+10   7.559783269974731E-2    8.549952193211294E-2   -3.018614294171285E-3   -3.688366490582580E-3   -3.204679052282418E-3    3.712554528782828E-3   -1.581254449967249E-1   -6.947165174199788E-2
 7.745000000000000E+10   2.101710265300520E-2   -5.885029392581723E-2   -4.778285454459892E-3    1.213584755208571E-3    2.075987250724644E-3    4.614388184940459E-3   -4.632774991039063E-2    5.679705207101175E-2
 7.748500000000000E+10  -1.334287595686705E-1   -6.914548406108924E-2   -8.930802055308546E-4    4.726448522911569E-3    4.911869916732292E-3    5.657911806150246E-5    1.180458362595882E-1    2.030377876035819E-2
 7.752000000000000E+10  -2.157481142741858E-1    6.086623825721222E-2    3.565730424461247E-3    2.781465065269032E-3    2.238334078706238E-3   -4.077294366843475E-3    1.652464472567471E-1   -1.284635825586294E-1
 7.755500000000000E+10  -1.453618044125900E-1    1.969899927647089E-1    3.943136741816324E-3   -1.544642827929447E-3   -2.170014416918489E-3   -3.806963631729981E-3    7.418815472206722E-2   -2.361649367623941E-1
 7.759000000000000E+10   1.106745959134827E-2    2.071038857189602E-1    6.062753458631906E-4   -4.066095045578029E-3   -4.223864829588596E-3   -3.316025523663835E-5   -5.370856408235013E-2   -2.191947874409428E-1
 7.762500000000000E+10   9.945189102564089E-2    7.636061115938675E-2   -2.967910151388195E-3   -2.475437719134842E-3   -2.068560161185899E-3    3.431675234102666E-3   -1.122773624524824E-1   -1.116715903316409E-1
 7.766000000000000E+10   2.354754402175912E-2   -6.519826377989810E-2   -3.611041737767590E-3    1.175487826598038E-3    1.807315319345706E-3    3.519300287668718E-3   -5.936164537458002E-2   -4.736722265656147E-3
 7.769500000000000E+10  -1.361408362394632E-1   -5.968691129634644E-2   -8.439166062476258E-4    3.574217294579121E-3    3.814902010580959E-3    2.074628727407580E-4    5.317104804123275E-2    1.619721812227385E-2
 7.773000000000000E+10  -2.030159595596522E-1    8.063832125310492E-2    2.430868979392371E-3    2.219621774268949E-3    1.761584848810737E-3   -2.902196295559717E-3    1.253955870633304E-1   -5.798873415705928E-2
 7.776500000000000E+10  -1.178481345019722E-1    2.070689329459428E-1    3.125719787651308E-3   -4.676058959951060E-4   -1.122135511343975E-3   -3.031760847841876E-3    1.111442383137388E-1   -1.455760129551303E-1
 7.780000000000000E+10   3.321471824362048E-2    2.005201790324069E-1    1.453342416596456E-3   -3.059421554273761E-3   -3.394346466134075E-3   -7.826856766293489E-4    3.131294071250387E-2   -1.765569232506043E-1
 7.783500000000000E+10   1.025268614184824E-1    6.619345703681710E-2   -1.644718143919327E-3   -2.567380846353713E-3   -2.196461108410247E-3    2.227357054948501E-3   -3.949018445116079E-2   -1.301529139122163E-1
 7.787000000000000E+10   1.834834546920832E-2   -6.000274712568032E-2   -3.057596592765261E-3   -4.966972462685417E-5    6.046823769280429E-4    3.068975135211819E-3   -3.726419589668162E-2   -4.135425899313704E-2
 7.790500000000000E+10  -1.350523695186542E-1   -4.664530508567283E-2   -1.586142698562170E-3    2.496049647266376E-3    2.858365896440925E-3    1.037035810857173E-3    3.163387152728288E-2    1.057086887364206E-2
 7.794000000000000E+10  -2.006211451065679E-1    9.177591136610345E-2    9.241602481096035E-4    2.623895719700379E-3    2.410151565551033E-3   -1.499794267169099E-3    1.144343743343912E-1   -1.286823372196780E-2
 7.797500000000000E+10  -1.279604498302806E-1    2.238228205736759E-1    2.976442087478569E-3    8.047640264727077E-4    1.964086141143313E-4   -3.140451907069300E-3    1.444530650078677E-1   -9.104205934739498E-2
 7.801000000000000E+10   2.783728084919939E-2    2.367714086516576E-1    2.125600747464993E-3   -1.885022061544771E-3   -2.296257264736044E-3   -1.735376350205823E-3    9.855827869238071E-2   -1.579093863794474E-1
 7.804500000000000E+10   1.244068219843417E-1    1.082654334039486E-1   -3.293356071988325E-4   -2.925378872901405E-3   -2.780003178119887E-3    9.258955206725712E-4    1.433973427877901E-2   -1.606301213167538E-1
 7.808000000000000E+10   6.895060954856791E-2   -3.787872271538615E-2   -2.666935344710793E-3   -1.525512009723532E-3   -9.765348878575824E-4    2.960222966634707E-3   -3.187155365485264E-2   -9.055770591278638E-2
 7.811500000000000E+10  -8.531457092025720E-2   -6.023030881847189E-2   -2.431252707327640E-3    1.334035514343268E-3    1.900779561093552E-3    2.139877521945159E-3   -4.794077371581867E-3   -7.533784753663761E-3
 7.815000000000000E+10  -1.737259605781766E-1    6.115584906241547E-2   -2.776827902019051E-4    3.145544509248642E-3    3.177415731146742E-3   -5.107138094807675E-4    8.343919477217410E-2    2.046677055473103E-2
