#  HZ   S   RI   R     50.00 
! Rohde & Schwarz Vector Network Analyzer 
! Rohde-Schwarz,ZNA50-4Port,1332450054101417,2.92
! Created: UTC 11/6/2024, 12:15:52 PM
! freq[Hz]                re:S11                  im:S11                  re:S21                  im:S21                  re:S12                  im:S12                  re:S22                  im:S22
 7.500000000000000E+10   6.330153315661525E-1   -5.896620637073606E-1   -1.329511046581916E-2   -1.207022864621533E-2   -1.642673816904677E-2   -9.913843985815868E-3    5.701283258296973E-1   -7.178592614636903E-1
 7.503500000000000E+10   6.165436162439308E-1   -6.229446157519590E-1   -1.356726554225845E-2   -1.166855437294457E-2   -1.703534534393705E-2   -9.080177246349835E-3    5.319081495923520E-1   -7.434815083342576E-1
 7.507000000000000E+10   5.999711753993918E-1   -6.497079627386887E-1   -1.396704307176514E-2   -1.115846025771189E-2   -1.740002983595677E-2   -8.435799632128040E-3    4.838106741863788E-1   -7.655620530508659E-1
 7.510500000000000E+10   5.775465658005684E-1   -6.681267054850081E-1   -1.452044731684646E-2   -1.048963015206770E-2   -1.766362287108512E-2   -7.659532644059700E-3    4.329164341379380E-1   -7.874574551445253E-1
 7.514000000000000E+10   5.346401869640043E-1   -6.865088369146124E-1   -1.527957041738771E-2   -9.534737073990121E-3   -1.800492216780967E-2   -6.688180276500861E-3    3.868600828924867E-1   -8.062340415715064E-1
 7.517500000000000E+10   4.896044167943068E-1   -7.118801826588202E-1   -1.607259569305615E-2   -8.515136213369991E-3   -1.853422472153175E-2   -5.665370975593438E-3    3.429686926126599E-1   -8.255386522141671E-1
 7.521000000000000E+10   4.459707555270614E-1   -7.290478277720173E-1   -1.649835405399893E-2   -7.691948740688724E-3   -1.887651983092055E-2   -4.737309499076327E-3    2.919201144314276E-1   -8.410329652525874E-1
 7.524500000000000E+10   4.072743198871776E-1   -7.537298833372541E-1   -1.692242259037165E-2   -6.951226040314435E-3   -1.924977242254534E-2   -3.857630003189560E-3    2.453568773832356E-1   -8.553035370036839E-1
 7.528000000000000E+10   3.684872719933890E-1   -7.875833742330007E-1   -1.751862817555240E-2   -6.251710167163647E-3   -1.966437621374275E-2   -2.809974275630308E-3    2.013657273302320E-1   -8.687003623136158E-1
 7.531500000000000E+10   3.295720700083757E-1   -8.212175608370729E-1   -1.799981602295990E-2   -5.336791237000101E-3   -2.005189383626953E-2   -1.658247762669993E-3    1.562723241422888E-1   -8.859504193367495E-1
 7.535000000000000E+10   2.910590725081145E-1   -8.507828855803078E-1   -1.851817514220829E-2   -4.502684474446497E-3   -2.032639729276205E-2   -4.519925377961620E-4    1.090473308817046E-1   -8.971758382922822E-1
 7.538500000000000E+10   2.451763202301700E-1   -8.737303791626401E-1   -1.881574182293916E-2   -3.581239154674385E-3   -2.043823341819812E-2    7.383778671625877E-4    5.631078775915947E-2   -8.986510462113841E-1
 7.542000000000000E+10   2.118932026356596E-1   -8.851237603196725E-1   -1.905967024551928E-2   -2.970857502455591E-3   -2.046418300730778E-2    2.093280139832554E-3    8.401051597825341E-3   -8.968731291971117E-1
 7.545500000000000E+10   1.891747812322144E-1   -8.985697016302863E-1   -1.929194474862160E-2   -2.256632288630807E-3   -2.065337024457775E-2    3.068293680703780E-3   -4.052444984093952E-2   -8.927842033065745E-1
 7.549000000000000E+10   1.700243916559502E-1   -9.105100889889844E-1   -1.952293592334606E-2   -1.265629780202983E-3   -2.075147067852226E-2    4.120513417032495E-3   -8.281391355805322E-2   -8.918194470522363E-1
 7.552500000000000E+10   1.353391232422043E-1   -9.247518505608099E-1   -1.974103256433995E-2   -1.771053497116868E-4   -2.060626248462923E-2    5.240140252205911E-3   -1.280026329512411E-1   -8.826447034301338E-1
 7.556000000000000E+10   9.237333035284649E-2   -9.362299394306102E-1   -1.971327332421298E-2    8.998944996174059E-4   -2.022880471046464E-2    6.248815861872093E-3   -1.735063261001082E-1   -8.762789939137861E-1
 7.559500000000000E+10   4.445295666204874E-2   -9.455449086701131E-1   -1.979581111566507E-2    1.786340897849860E-3   -1.981282393528783E-2    7.211308622570218E-3   -2.216394535405363E-1   -8.702414821890880E-1
 7.563000000000000E+10  -1.086035563969127E-2   -9.367603697629899E-1   -1.992986357009709E-2    2.695341976488807E-3   -1.933403428013672E-2    8.387729067483260E-3   -2.706694734660641E-1   -8.552779782981357E-1
 7.566500000000000E+10  -6.337347242016429E-2   -9.198724305020471E-1   -1.993977659198203E-2    3.513867190107117E-3   -1.875799354551448E-2    9.550180987138961E-3   -3.173485526195768E-1   -8.350214245284855E-1
 7.570000000000000E+10  -1.209025303695496E-1   -9.060461340315066E-1   -2.003383672035187E-2    4.468048618157760E-3   -1.789537542825836E-2    1.059184499638585E-2   -3.669210995485320E-1   -8.057680296745894E-1
 7.573500000000000E+10  -1.538645001274718E-1   -9.003399928403585E-1   -1.999450011229655E-2    5.542881181151411E-3   -1.727079721081605E-2    1.142006319798662E-2   -4.117291915667590E-1   -7.752335012033783E-1
 7.577000000000000E+10  -1.737607538142843E-1   -9.045703086420457E-1   -1.964267296312130E-2    6.555703927992057E-3   -1.727854409824922E-2    1.237769282123511E-2   -4.488072566690084E-1   -7.555668341730363E-1
 7.580500000000000E+10  -2.186793757966185E-1   -9.038697258116961E-1   -1.928789065154386E-2    7.478909446543796E-3   -1.715218915130628E-2    1.307960277869487E-2   -4.880253417474401E-1   -7.349137672281140E-1
 7.584000000000000E+10  -2.739156046279552E-1   -9.019903890821994E-1   -1.907335116862890E-2    8.667319563430401E-3   -1.662838703810893E-2    1.397842716500510E-2   -5.337770781058859E-1   -7.061244387980397E-1
 7.587500000000000E+10  -3.573826906648527E-1   -8.969378008466724E-1   -1.881986593360727E-2    1.017224583674074E-2   -1.556177039022699E-2    1.519479506727186E-2   -5.762954400777303E-1   -6.728676087893551E-1
 7.591000000000000E+10  -4.394769839439363E-1   -8.757952640546512E-1   -1.829380502824764E-2    1.164020010778389E-2   -1.433750221085024E-2    1.663688603435688E-2   -6.234687323871310E-1   -6.409788136714875E-1
 7.594500000000000E+10  -5.058713108694819E-1   -8.469485884081320E-1   -1.762359136056696E-2    1.273261051344394E-2   -1.302997073443009E-2    1.774179453074901E-2   -6.637348371913321E-1   -6.028752384494845E-1
 7.598000000000000E+10  -5.449257548492106E-1   -8.304716184551078E-1   -1.705937123073653E-2    1.366687022538096E-2   -1.226114487037056E-2    1.850053138931015E-2   -6.958277989351010E-1   -5.631563840994979E-1
 7.601500000000000E+10  -5.651108467241978E-1   -8.334085138436629E-1   -1.656540753745537E-2    1.439713411937127E-2   -1.206043909085112E-2    1.934955781780922E-2   -7.275405817911765E-1   -5.181042409832876E-1
 7.605000000000000E+10  -5.873228360492463E-1   -8.447530966196323E-1   -1.602077461344494E-2    1.529930452118858E-2   -1.169822350963593E-2    2.047601443671471E-2   -7.544481066742550E-1   -4.807803323070787E-1
 7.608500000000000E+10  -6.221577284024884E-1   -8.383578446148541E-1   -1.539831640302903E-2    1.610036069001817E-2   -1.073840681431426E-2    2.115206658104718E-2   -7.762152634278242E-1   -4.421211227805239E-1
 7.612000000000000E+10  -6.662121613651577E-1   -8.098088604976088E-1   -1.465662351280814E-2    1.699586441988420E-2   -9.441542857847041E-3    2.158344097716481E-2   -7.994752878437968E-1   -4.058769895420801E-1
 7.615500000000000E+10  -7.173017496208168E-1   -7.616140493824061E-1   -1.393173248831616E-2    1.798018314662842E-2   -7.986402151830656E-3    2.189708671412490E-2   -8.236613945828324E-1   -3.657492724508446E-1
 7.619000000000000E+10  -7.650078546458789E-1   -7.024582759979169E-1   -1.306997401235242E-2    1.880399387215978E-2   -6.414418497100340E-3    2.207886508836670E-2   -8.412096097933283E-1   -3.209553095240771E-1
 7.622500000000000E+10  -8.026614954398991E-1   -6.474294019863168E-1   -1.224675867022370E-2    1.981624936806051E-2   -4.814531176010076E-3    2.227401289269014E-2   -8.608924815579762E-1   -2.740806126444491E-1
 7.626000000000000E+10  -8.355923413582071E-1   -5.976300965825507E-1   -1.131534120902924E-2    2.081829188796128E-2   -3.543829468891273E-3    2.232008265479098E-2   -8.694568482793333E-1   -2.199390485033169E-1
 7.629500000000000E+10  -8.695868151638478E-1   -5.616673391946427E-1   -1.037132614130241E-2    2.181542268038965E-2   -2.559328860986778E-3    2.239005862676096E-2   -8.815017226797955E-1   -1.559506767133268E-1
 7.633000000000000E+10  -9.096676196562187E-1   -5.262089099731785E-1   -9.229563124942478E-3    2.257863871185442E-2   -1.716046581506579E-3    2.269973933943800E-2   -8.885510532733969E-1   -9.946803099024032E-2
 7.636500000000000E+10  -9.527035538777764E-1   -4.793934807561421E-1   -7.752297536304334E-3    2.323277279046823E-2   -9.286362386337304E-4    2.305196613310756E-2   -8.956270604014921E-1   -4.922180422356835E-2
 7.640000000000000E+10  -9.866772531423192E-1   -4.328866933980930E-1   -6.376461389904081E-3    2.363909610295803E-2   -3.608164699352725E-4    2.325571409387079E-2   -8.988939717463473E-1   -6.515386291742765E-3
 7.643500000000000E+10  -1.014453241916700      -3.745418980066182E-1   -5.133211150770841E-3    2.383580238121813E-2    4.862781803536731E-4    2.345020292046117E-2   -8.998264915338445E-1    4.376187929291590E-2
 7.647000000000000E+10  -1.031738125084285      -3.193035044094868E-1   -4.040236916626324E-3    2.436629341027401E-2    1.547374196899395E-3    2.377340983995150E-2   -9.017128045442955E-1    9.586442123155403E-2
 7.650500000000000E+10  -1.051565222025109      -2.511474751121944E-1   -2.564341958335476E-3    2.497730905558716E-2    2.981123693565264E-3    2.391789642299309E-2   -9.009364731313374E-1    1.479414712219456E-1
 7.654000000000000E+10  -1.058967609637666      -1.704835383620928E-1   -7.396747759089791E-4    2.496176736936746E-2    4.628234591898881E-3    2.361497627119693E-2   -8.851129872091371E-1    1.992043691555745E-1
 7.657500000000000E+10  -1.060854492893327      -1.044009145744702E-1    6.081554739867999E-4    2.488502971441407E-2    6.002150799610948E-3    2.332525644469144E-2   -8.748951505797794E-1    2.462678529094705E-1
 7.661000000000000E+10  -1.075988053959384      -3.924411922243073E-2    2.163273372350323E-3    2.472764333982194E-2    7.217959539350416E-3    2.346188347984753E-2   -8.611360452528404E-1    2.948337178418341E-1
 7.664500000000000E+10  -1.104996549802961       1.634313470951270E-2    3.563764808913128E-3    2.475293136282162E-2    8.504666181506616E-3    2.358925220533689E-2   -8.451307852760528E-1    3.441231404380443E-1
 7.668000000000000E+10  -1.122162073257287       7.587105863874589E-2    4.970409427410619E-3    2.480078956227917E-2    9.727442140372296E-3    2.347355537805929E-2   -8.236853856309929E-1    3.906691609266857E-1
 7.671500000000000E+10  -1.132303485823126       1.304458622234639E-1    6.440483704025833E-3    2.479531688252092E-2    1.104228099630378E-2    2.293029066407740E-2   -8.038876831310733E-1    4.343437118540392E-1
 7.675000000000000E+10  -1.122888333292978       1.834057228256447E-1    7.777634281721449E-3    2.464619455998031E-2    1.217251952245010E-2    2.209744454932549E-2   -7.803483926989544E-1    4.783128576029380E-1
 7.678500000000000E+10  -1.103752091569765       2.399517301016686E-1    8.928946612423680E-3    2.439533923174990E-2    1.339830161841482E-2    2.154831347908732E-2   -7.525464415362653E-1    5.197094891531795E-1
 7.682000000000000E+10  -1.075213530606745       3.019386577717456E-1    1.063301667285636E-2    2.401126086462073E-2    1.477529967548002E-2    2.080498333962946E-2   -7.235427740007022E-1    5.579099600747447E-1
 7.685500000000000E+10  -1.038245209264005       3.614598685973558E-1    1.200551991760572E-2    2.311872163103986E-2    1.578467419033403E-2    2.010717696820515E-2   -6.962014768280043E-1    5.977103978253808E-1
 7.689000000000000E+10  -1.004743580878560       4.172719209017827E-1    1.328390181414813E-2    2.226617765533288E-2    1.677535310489617E-2    1.967376651235575E-2   -6.600598345249864E-1    6.330845330828252E-1
 7.692500000000000E+10  -9.755921335641869E-1    4.752515715886466E-1    1.474715894962113E-2    2.162713081254779E-2    1.790559144923385E-2    1.882770035839500E-2   -6.227005288557568E-1    6.722612225332784E-1
 7.696000000000000E+10  -9.455776312862639E-1    5.338442865234992E-1    1.623224659166460E-2    2.089764614567817E-2    1.900547769099106E-2    1.783530522618404E-2   -5.864882649967516E-1    7.046964986093587E-1
 7.699500000000000E+10  -9.174192547472791E-1    5.971395448988183E-1    1.755941142824722E-2    2.014176271113330E-2    2.020496019928157E-2    1.666479531501958E-2   -5.467460932106248E-1    7.370858077768884E-1
 7.703000000000000E+10  -8.804244662491156E-1    6.553794345292827E-1    1.872859441075405E-2    1.947121653785836E-2    2.141850628501554E-2    1.562995645641915E-2   -5.125971118871913E-1    7.656105768535755E-1
 7.706500000000000E+10  -8.326617558018279E-1    6.980631277030805E-1    1.966369367781267E-2    1.841289204689542E-2    2.225591917994663E-2    1.453069102170278E-2   -4.671050710013279E-1    7.920743453887329E-1
 7.710000000000000E+10  -7.800265041019266E-1    7.478704530540339E-1    2.080103355581514E-2    1.714816746641776E-2    2.301337567050776E-2    1.331716181631583E-2   -4.240676359223509E-1    8.168197887791752E-1
 7.713500000000000E+10  -7.286284760461917E-1    7.954966905653011E-1    2.148124949518665E-2    1.566480773427973E-2    2.377432479743091E-2    1.212260715658890E-2   -3.767640773345843E-1    8.374337897600764E-1
 7.717000000000000E+10  -6.838303847175325E-1    8.389626880220320E-1    2.187061741197841E-2    1.410226681380819E-2    2.453623174274156E-2    1.108495072001675E-2   -3.342688427957148E-1    8.549976957176200E-1
 7.720500000000000E+10  -6.411481061869030E-1    8.695765500479519E-1    2.243780285018860E-2    1.317854181988484E-2    2.505632710973252E-2    9.911453927934806E-3   -2.903566719779671E-1    8.736173643634877E-1
 7.724000000000000E+10  -6.123794877084106E-1    8.819559325433644E-1    2.346063933516055E-2    1.207730589070524E-2    2.527745733007312E-2    8.632214202757598E-3   -2.425916301662122E-1    8.862618046777196E-1
 7.727500000000000E+10  -5.614626535743272E-1    8.951365650859637E-1    2.440026260892220E-2    1.068651756637046E-2    2.558902360601101E-2    7.000635336001719E-3   -2.016141886592188E-1    8.970039204545650E-1
 7.731000000000000E+10  -5.008641812718081E-1    9.034670810437518E-1    2.469956977202619E-2    9.117124441688027E-3    2.592398888883328E-2    5.131357367192631E-3   -1.543622755498948E-1    9.032123092541704E-1
 7.734500000000000E+10  -4.370427997239581E-1    9.217709918887548E-1    2.497553114965237E-2    7.844654798221346E-3    2.615775075162619E-2    3.316684798872013E-3   -1.058038744950176E-1    9.090426085537100E-1
 7.738000000000000E+10  -3.788737165932424E-1    9.420292880469427E-1    2.520117712440768E-2    6.352128545820304E-3    2.623180447909675E-2    1.590950703300779E-3   -4.989199550522472E-2    9.094069672591140E-1
 7.741500000000000E+10  -3.236631526487895E-1    9.627067129411452E-1    2.556119322276262E-2    4.646305530531228E-3    2.633502563391410E-2    1.392533805005874E-4    5.542263891067684E-3    9.071974967445788E-1
 7.745000000000000E+10  -2.702718261461299E-1    9.852778490117045E-1    2.613891046188346E-2    3.079879792078842E-3    2.659868480115053E-2   -1.303663082419075E-3    5.494400711813874E-2    9.029094766070632E-1
 7.748500000000000E+10  -2.217046715713463E-1    1.005132191277902       2.647962969547736E-2    1.419268881415511E-3    2.696677796104624E-2   -2.616085638407787E-3    9.826380402894727E-2    9.015816566762431E-1
 7.752000000000000E+10  -1.737994939672242E-1    1.026738332083125       2.691048319054040E-2    2.468939673085341E-4    2.739849561701744E-2   -3.704697530760327E-3    1.363656841263543E-1    9.026982538394223E-1
 7.755500000000000E+10  -1.310502255206611E-1    1.042911778994002       2.728486379002960E-2   -8.513814432136532E-4    2.760237195227767E-2   -5.046669085124238E-3    1.754566179490579E-1    9.023881123904344E-1
 7.759000000000000E+10  -7.974523337000199E-2    1.049743434356740       2.760229252640237E-2   -1.983463705718269E-3    2.710971141700754E-2   -6.469763014947107E-3    2.126585534845871E-1    8.967997922094513E-1
 7.762500000000000E+10  -2.460406933219937E-2    1.050341101905174       2.782304890260611E-2   -3.196529089504623E-3    2.652591920348698E-2   -7.748780968219623E-3    2.530314307971337E-1    8.848888916927689E-1
 7.766000000000000E+10   2.598224901141650E-2    1.036851899396539       2.763030806766481E-2   -4.497394893671171E-3    2.604251672952934E-2   -8.873125677018198E-3    3.014965251550819E-1    8.664923255248024E-1
 7.769500000000000E+10   8.014534981546137E-2    1.011100233572462       2.720914432482420E-2   -5.841459258079743E-3    2.539875535512730E-2   -1.017276281371942E-2    3.500121930709864E-1    8.398280671055196E-1
 7.773000000000000E+10   1.223547471621322E-1    9.912340292649000E-1    2.681570122719403E-2   -6.978757109886740E-3    2.508110630842415E-2   -1.139343711673866E-2    3.941806276340610E-1    8.135723708262589E-1
 7.776500000000000E+10   1.632644502698594E-1    9.712337762061165E-1    2.645454399868855E-2   -8.003958132434130E-3    2.484571707092034E-2   -1.247448808952931E-2    4.302906886235716E-1    7.874990109609985E-1
 7.780000000000000E+10   1.964528649190198E-1    9.560893397144503E-1    2.606876383081967E-2   -9.036712730048867E-3    2.455744765742239E-2   -1.384310138146245E-2    4.701786243085026E-1    7.640387969121339E-1
 7.783500000000000E+10   2.381050920591032E-1    9.480415626818948E-1    2.578129143596556E-2   -1.027514169574349E-2    2.408908511713038E-2   -1.506379924841929E-2    5.056410889550959E-1    7.411750316913371E-1
 7.787000000000000E+10   2.873121552708170E-1    9.286391124722191E-1    2.509986243700166E-2   -1.202937566164617E-2    2.315309067752742E-2   -1.644331125613292E-2    5.380534080538470E-1    7.199284143476089E-1
 7.790500000000000E+10   3.340880042929785E-1    9.083729244472046E-1    2.444910207747770E-2   -1.350854642260844E-2    2.202776856258229E-2   -1.785010889897286E-2    5.668603335663897E-1    7.014334232930409E-1
 7.794000000000000E+10   3.794006240659028E-1    8.914922630498540E-1    2.383363877093180E-2   -1.481364258531496E-2    2.050825731510689E-2   -1.915814562105227E-2    5.968298196817171E-1    6.818275343044915E-1
 7.797500000000000E+10   4.219778408437909E-1    8.691256558370190E-1    2.308441882884374E-2   -1.604698106666508E-2    1.874737722024535E-2   -2.035213474488669E-2    6.308182876576992E-1    6.516950548569476E-1
 7.801000000000000E+10   4.695778186630312E-1    8.480921644477070E-1    2.231392363853843E-2   -1.736368502277364E-2    1.776799504693973E-2   -2.143384427945898E-2    6.597167204762354E-1    6.227847481448758E-1
 7.804500000000000E+10   5.174048268984796E-1    8.121227155343834E-1    2.129996378322459E-2   -1.857884527023048E-2    1.694837235520750E-2   -2.267274181017373E-2    6.889038318693547E-1    5.861259160050400E-1
 7.808000000000000E+10   5.625063052670038E-1    7.639705281122595E-1    2.027454926546651E-2   -1.971425694470683E-2    1.607229926885022E-2   -2.390045491322465E-2    7.177849355658271E-1    5.438213358949583E-1
 7.811500000000000E+10   5.896046646759866E-1    7.286417001032766E-1    1.918346290672449E-2   -2.086353911447318E-2    1.493050131435981E-2   -2.477955913234087E-2    7.400905011577154E-1    5.016600548067776E-1
 7.815000000000000E+10   6.146341079458496E-1    6.980960404344619E-1    1.826260774940808E-2   -2.172915568068428E-2    1.391367769225244E-2   -2.542953801406774E-2    7.630490378553862E-1    4.567504445838014E-1
