#  HZ   S   RI   R     50.00 
! Rohde & Schwarz Vector Network Analyzer 
! Rohde-Schwarz,ZNA50-4Port,1332450054101417,2.92
! Created: UTC 11/6/2024, 12:37:30 PM
! freq[Hz]                re:S11                  im:S11                  re:S21                  im:S21                  re:S12                  im:S12                  re:S22                  im:S22
 7.500000000000000E+10   6.290701936515565E-1   -4.034560995601555E-1   -6.910398439677813E-3   -1.454876089628121E-2   -1.356640937311239E-2   -1.097153272447796E-2    6.449743124430080E-1   -4.351822757244927E-1
 7.503500000000000E+10   6.162354365359715E-1   -4.319849071102731E-1   -7.509510325072061E-3   -1.450900991846717E-2   -1.416046936202491E-2   -1.034203657678582E-2    6.267268525903557E-1   -4.640840937274414E-1
 7.507000000000000E+10   6.058270466436885E-1   -4.528762766737357E-1   -8.195302774153399E-3   -1.403718653184203E-2   -1.448366218206852E-2   -9.874920204498684E-3    5.995010121667808E-1   -4.914965239937004E-1
 7.510500000000000E+10   5.847412570036211E-1   -4.741236376773664E-1   -8.949180335532374E-3   -1.350003479735007E-2   -1.485351142155953E-2   -9.103728133584153E-3    5.683670516717253E-1   -5.225383723067472E-1
 7.514000000000000E+10   5.476726165282946E-1   -4.992913581523952E-1   -9.813900570455170E-3   -1.287138828470910E-2   -1.533029917854162E-2   -8.208992959007297E-3    5.376511977675089E-1   -5.502325096072683E-1
 7.517500000000000E+10   5.125979604649203E-1   -5.258644477292213E-1   -1.054424493858804E-2   -1.235936320817897E-2   -1.575163838183997E-2   -7.308306593664972E-3    5.095069311380459E-1   -5.789618082566141E-1
 7.521000000000000E+10   4.777120642696341E-1   -5.490907949141813E-1   -1.119237874373693E-2   -1.187755009586590E-2   -1.625436976382079E-2   -6.546512397456570E-3    4.777568482613198E-1   -6.033521314426376E-1
 7.524500000000000E+10   4.472579763947771E-1   -5.754260050112352E-1   -1.179179440923095E-2   -1.134825905167535E-2   -1.664796159157243E-2   -5.928433920605316E-3    4.499727169481778E-1   -6.252334871742539E-1
 7.528000000000000E+10   4.193304960790321E-1   -6.055753979380712E-1   -1.240729985851740E-2   -1.083156788731298E-2   -1.702616534817862E-2   -5.146688570065365E-3    4.207021241558413E-1   -6.477464535197475E-1
 7.531500000000000E+10   3.880324045080900E-1   -6.384564996889921E-1   -1.307900007982734E-2   -1.035305607156211E-2   -1.751836125424289E-2   -4.228399396305094E-3    3.909468107796378E-1   -6.752038565518127E-1
 7.535000000000000E+10   3.543031339532955E-1   -6.647546588708469E-1   -1.397263705467619E-2   -9.855205896280358E-3   -1.783673447867701E-2   -3.233495256057912E-3    3.596901095621136E-1   -6.980433753930735E-1
 7.538500000000000E+10   3.135079035047103E-1   -6.870903436673816E-1   -1.464451359375923E-2   -9.123410663773757E-3   -1.801138383050240E-2   -2.084440049438195E-3    3.218890091363695E-1   -7.141102814904364E-1
 7.542000000000000E+10   2.816033136378904E-1   -7.006268368959888E-1   -1.503814921260217E-2   -8.433416297144837E-3   -1.828895543125589E-2   -9.562402191331334E-4    2.862464731873373E-1   -7.273182339682134E-1
 7.545500000000000E+10   2.615465668870003E-1   -7.153502141416107E-1   -1.534253340674169E-2   -7.768093642951824E-3   -1.856798817417278E-2   -5.821349608058562E-5    2.490402488658678E-1   -7.386310981929204E-1
 7.549000000000000E+10   2.412382883494488E-1   -7.286437724376413E-1   -1.579468351624416E-2   -7.018051099162213E-3   -1.877927628796267E-2    9.042789316347388E-4    2.162296364066590E-1   -7.509701730202731E-1
 7.552500000000000E+10   2.109633140241324E-1   -7.435140731147067E-1   -1.622756982258208E-2   -6.352451092043221E-3   -1.877227609352883E-2    1.827396693376912E-3    1.793035464629599E-1   -7.586769685910855E-1
 7.556000000000000E+10   1.756308280387795E-1   -7.581525670909227E-1   -1.662441341054082E-2   -5.658115780539570E-3   -1.865758003391229E-2    2.786535119220437E-3    1.474983700522962E-1   -7.677663312687567E-1
 7.559500000000000E+10   1.355051637887005E-1   -7.695260318046695E-1   -1.704854565972953E-2   -4.941922499475764E-3   -1.841770564939412E-2    3.803810604228212E-3    1.130721700418338E-1   -7.791772542389207E-1
 7.563000000000000E+10   8.426688639248416E-2   -7.691912916219198E-1   -1.742424421417321E-2   -4.120286092763801E-3   -1.814177089440251E-2    4.933860883907847E-3    7.429173286453120E-2   -7.842620428003312E-1
 7.566500000000000E+10   3.270895357838951E-2   -7.564557729801482E-1   -1.770416337036076E-2   -3.377553002267902E-3   -1.760746559953341E-2    6.114582660737194E-3    3.076271343377642E-2   -7.871410808492857E-1
 7.570000000000000E+10  -2.054239218567737E-2   -7.464163956468658E-1   -1.797611773790168E-2   -2.526364442285628E-3   -1.696067205857281E-2    7.160712492269610E-3   -1.220205609861800E-2   -7.811224231179529E-1
 7.573500000000000E+10  -4.972462690032159E-2   -7.440808544299428E-1   -1.807821233344641E-2   -1.516676174883849E-3   -1.657563622055933E-2    7.955162679014765E-3   -5.483005487512213E-2   -7.729134113605859E-1
 7.577000000000000E+10  -6.977080359817014E-2   -7.490977186923578E-1   -1.804712408467708E-2   -5.758868512104845E-4   -1.663475076294651E-2    8.598701495344332E-3   -9.088234011941178E-2   -7.683541648261152E-1
 7.580500000000000E+10  -1.083300077409570E-1   -7.508780122823016E-1   -1.817285087350301E-2    3.541441318740215E-4   -1.660722196003860E-2    9.256136583554665E-3   -1.294665869537083E-1   -7.670694507486039E-1
 7.584000000000000E+10  -1.553008743386332E-1   -7.528280581872522E-1   -1.837991950600142E-2    1.399041562575112E-3   -1.622627325868182E-2    1.008849664674144E-2   -1.693681264865573E-1   -7.623706425630307E-1
 7.587500000000000E+10  -2.230008722559750E-1   -7.525153947153422E-1   -1.860726452673143E-2    2.662483157483647E-3   -1.555256917842792E-2    1.118243991365188E-2   -2.094155000831860E-1   -7.563746243508265E-1
 7.591000000000000E+10  -2.936346713492267E-1   -7.365422582146680E-1   -1.868592993828768E-2    4.024514494527055E-3   -1.462352128121363E-2    1.242492709258501E-2   -2.510948308821413E-1   -7.536738324873687E-1
 7.594500000000000E+10  -3.574315762969715E-1   -7.082536081546802E-1   -1.852392539817705E-2    5.171562239922398E-3   -1.336886763895113E-2    1.355268696822272E-2   -2.942743674362657E-1   -7.408163165747235E-1
 7.598000000000000E+10  -3.931946489540658E-1   -6.940169292413877E-1   -1.825330207317029E-2    6.090360991395026E-3   -1.278364723256785E-2    1.441438379488949E-2   -3.373539751116510E-1   -7.221096548536854E-1
 7.601500000000000E+10  -4.123738262113605E-1   -6.962795244467129E-1   -1.793149328231714E-2    6.810965157722722E-3   -1.274745336215115E-2    1.511268360365472E-2   -3.764290710653507E-1   -7.019922087681250E-1
 7.605000000000000E+10  -4.301082688241476E-1   -7.040990377490470E-1   -1.774309565960860E-2    7.682745570675369E-3   -1.260559652401606E-2    1.597834962591603E-2   -4.071821310488229E-1   -6.827884077623513E-1
 7.608500000000000E+10  -4.629281874860025E-1   -6.970012889517059E-1   -1.749213920348026E-2    8.622341712363946E-3   -1.204554765936758E-2    1.653218347719959E-2   -4.367553681955229E-1   -6.673898916467647E-1
 7.612000000000000E+10  -5.004457445394338E-1   -6.761566544002197E-1   -1.721026450795709E-2    9.555619531564910E-3   -1.094324659015443E-2    1.721100758558334E-2   -4.687946524028916E-1   -6.489684224532086E-1
 7.615500000000000E+10  -5.449285955944646E-1   -6.375197844196242E-1   -1.683172623882468E-2    1.064186655921814E-2   -9.653195773427520E-3    1.770079801743290E-2   -4.988668294041567E-1   -6.316842883705051E-1
 7.619000000000000E+10  -5.871224121487182E-1   -5.863893174691797E-1   -1.615640784418355E-2    1.155839463325938E-2   -8.310632974260383E-3    1.797298621273864E-2   -5.259955344161271E-1   -6.056697016179360E-1
 7.622500000000000E+10  -6.215089199400775E-1   -5.418967341215145E-1   -1.570685333528848E-2    1.242070084657332E-2   -7.118212818915425E-3    1.836419042208493E-2   -5.608232265466563E-1   -5.782387083439720E-1
 7.626000000000000E+10  -6.505565061480616E-1   -5.030923186623764E-1   -1.520908609266281E-2    1.335369482560585E-2   -5.980328879852370E-3    1.877523725671178E-2   -5.915218493889134E-1   -5.413944919818243E-1
 7.629500000000000E+10  -6.804536124663335E-1   -4.724670778550515E-1   -1.480364430775934E-2    1.428192893542746E-2   -5.048812390089133E-3    1.909240144420717E-2   -6.271766320655626E-1   -5.013791484593899E-1
 7.633000000000000E+10  -7.130081909183996E-1   -4.378240044092446E-1   -1.398096590533139E-2    1.511784586753883E-2   -4.357726639233940E-3    1.937593847857840E-2   -6.530107826334255E-1   -4.650813814665758E-1
 7.636500000000000E+10  -7.486429783258746E-1   -4.012375323858595E-1   -1.340438061890922E-2    1.604296960091714E-2   -3.741066888058460E-3    1.966278640399300E-2   -6.781797171697991E-1   -4.300121307723725E-1
 7.640000000000000E+10  -7.709520798291138E-1   -3.622382104245173E-1   -1.260337948423971E-2    1.725326408918105E-2   -3.296894813745100E-3    1.997929141177428E-2   -6.977603898337120E-1   -3.994886128159885E-1
 7.643500000000000E+10  -7.971020616696672E-1   -3.133135654294327E-1   -1.123957687857226E-2    1.814507028159038E-2   -2.356326049675191E-3    2.021786664316852E-2   -7.212449558189741E-1   -3.616679864684469E-1
 7.647000000000000E+10  -8.134691996418764E-1   -2.694330872635577E-1   -1.014255583412335E-2    1.872764899206016E-2   -1.474735138172423E-3    2.040441531487460E-2   -7.417534956724132E-1   -3.272371596792615E-1
 7.650500000000000E+10  -8.305478522442941E-1   -2.138225214917070E-1   -8.906521428752916E-3    1.916606132207799E-2   -4.286911033489675E-4    2.058058287303409E-2   -7.597099128212698E-1   -2.916213408148399E-1
 7.654000000000000E+10  -8.378176308225430E-1   -1.561252427485032E-1   -7.890399905182212E-3    1.947994927073944E-2    9.858522047901147E-4    2.067753158012313E-2   -7.773065725476010E-1   -2.432462185247440E-1
 7.657500000000000E+10  -8.383387023419925E-1   -9.374148459045432E-2   -6.825411066567696E-3    1.981815435348210E-2    2.431961284820624E-3    2.043549853738381E-2   -7.904240205814087E-1   -2.037038670064938E-1
 7.661000000000000E+10  -8.532053027846646E-1   -3.660084884358520E-2   -5.629625081000273E-3    2.022561832928171E-2    3.544607745588480E-3    2.062030366950147E-2   -8.042950762055375E-1   -1.592126567805792E-1
 7.664500000000000E+10  -8.763259081750613E-1    1.950353386001698E-3   -4.580097780096075E-3    2.084094211079943E-2    4.351929525694698E-3    2.086977012800115E-2   -8.122074575910863E-1   -1.196786880435916E-1
 7.668000000000000E+10  -8.957333649219380E-1    4.848115751083102E-2   -3.170277155169704E-3    2.128132113897767E-2    5.197474431831594E-3    2.104440150188415E-2   -8.197041338450785E-1   -7.807693577565235E-2
 7.671500000000000E+10  -9.044165105092951E-1    9.037062654121407E-2   -2.118641887471511E-3    2.143215349654982E-2    6.518156976620518E-3    2.076427846814194E-2   -8.229838369515490E-1   -3.332417284535263E-2
 7.675000000000000E+10  -8.973547749065791E-1    1.282078837328967E-1   -1.344775928223154E-3    2.147832961878545E-2    7.787736488906434E-3    2.020926853730511E-2   -8.271690820934930E-1    1.112574632270513E-2
 7.678500000000000E+10  -8.858475603128932E-1    1.768561775300403E-1   -3.276067315129274E-4    2.151416929904553E-2    8.794966631283681E-3    1.977922792919494E-2   -8.233555621204462E-1    5.012776887144266E-2
 7.682000000000000E+10  -8.632649175001150E-1    2.233946510575344E-1    8.386139497473395E-4    2.161056594816800E-2    9.771769958656409E-3    1.925611526982192E-2   -8.221722951275044E-1    9.376024373804100E-2
 7.685500000000000E+10  -8.371849702387316E-1    2.723823148207180E-1    1.877052512694031E-3    2.160224841677035E-2    1.088458920237528E-2    1.906672368547973E-2   -8.183133308175015E-1    1.322784103390213E-1
 7.689000000000000E+10  -8.132104598411647E-1    3.199742651298615E-1    3.410439713900506E-3    2.171570476885895E-2    1.201214945810618E-2    1.850347154612906E-2   -8.085889348566735E-1    1.774344933525695E-1
 7.692500000000000E+10  -7.945422555877866E-1    3.653104903353350E-1    4.897889007691067E-3    2.164854101602625E-2    1.292518568715737E-2    1.791066865112600E-2   -8.000185231081344E-1    2.267603454053248E-1
 7.696000000000000E+10  -7.747602569654414E-1    4.133321166976249E-1    6.402259428405700E-3    2.142481203112572E-2    1.395293681098604E-2    1.719926274328807E-2   -7.865917820138099E-1    2.689167732460204E-1
 7.699500000000000E+10  -7.546919403209619E-1    4.647787904218732E-1    7.862164708267540E-3    2.101861962216535E-2    1.516411586601107E-2    1.641941557905173E-2   -7.723748452576557E-1    3.133754503983422E-1
 7.703000000000000E+10  -7.303140164909189E-1    5.085136480875874E-1    8.905665221613891E-3    2.064370080618057E-2    1.619388379640784E-2    1.558476436126903E-2   -7.578532322185400E-1    3.543421160577475E-1
 7.706500000000000E+10  -6.913372532262545E-1    5.473625526084328E-1    9.982247542394374E-3    1.966968726538406E-2    1.696770874733253E-2    1.458352332313573E-2   -7.343328707906513E-1    3.963243699147527E-1
 7.710000000000000E+10  -6.523905843654910E-1    5.894353211395396E-1    1.097716617090728E-2    1.896427946757786E-2    1.774706959552926E-2    1.378122159688009E-2   -7.144104216959293E-1    4.380826725922323E-1
 7.713500000000000E+10  -6.133514827585904E-1    6.309752773033768E-1    1.181428911603309E-2    1.831725845434343E-2    1.848392318121385E-2    1.294301360602454E-2   -6.907073957356061E-1    4.742431943837135E-1
 7.717000000000000E+10  -5.829618642754650E-1    6.655522274697271E-1    1.281308026311698E-2    1.768038956920717E-2    1.922518848200197E-2    1.202549039966181E-2   -6.625991104238710E-1    5.108033927135039E-1
 7.720500000000000E+10  -5.561679611692819E-1    6.882079547350823E-1    1.377077394033305E-2    1.710492474431739E-2    1.970885609670073E-2    1.097854704292404E-2   -6.353904681809868E-1    5.493918674820327E-1
 7.724000000000000E+10  -5.307246966310278E-1    7.042709838450694E-1    1.476872936365848E-2    1.619096410237578E-2    2.010574716794445E-2    9.815110103902683E-3   -6.031344756281636E-1    5.820609049707277E-1
 7.727500000000000E+10  -4.926671183875619E-1    7.229312204197773E-1    1.564824694473424E-2    1.519133743615357E-2    2.059329080422177E-2    8.640147642511704E-3   -5.741188944336988E-1    6.090775750341545E-1
 7.731000000000000E+10  -4.460819111231113E-1    7.364808416740222E-1    1.614936474168084E-2    1.411526107697394E-2    2.116630839719803E-2    7.128371648106502E-3   -5.378521212408583E-1    6.395611516931246E-1
 7.734500000000000E+10  -3.992500069177910E-1    7.541822021431038E-1    1.655360162293459E-2    1.339145697194930E-2    2.151423237797799E-2    5.622397122777210E-3   -4.988585778095539E-1    6.659016125435701E-1
 7.738000000000000E+10  -3.550761759591785E-1    7.728483887343260E-1    1.720603744501062E-2    1.255562867168929E-2    2.174921199377935E-2    4.132623493778514E-3   -4.570277481496350E-1    6.921700546745635E-1
 7.741500000000000E+10  -3.118982273139918E-1    7.914250916200621E-1    1.797566703856332E-2    1.136609761043662E-2    2.196714269581188E-2    2.937901734628827E-3   -4.156905491752826E-1    7.153597392420032E-1
 7.745000000000000E+10  -2.722203108913327E-1    8.094251343074230E-1    1.886659538416883E-2    1.035621170192380E-2    2.230276919912342E-2    1.802446747985177E-3   -3.716941541385673E-1    7.356214494189673E-1
 7.748500000000000E+10  -2.301410620837296E-1    8.282016244434213E-1    1.974735784884056E-2    9.053776086963783E-3    2.263208548060753E-2    4.970059439888847E-4   -3.305971746663083E-1    7.550799785865909E-1
 7.752000000000000E+10  -1.968470538906974E-1    8.468202742930827E-1    2.037596099671529E-2    8.206335813408600E-3    2.296037990027769E-2   -4.183049262655395E-4   -2.951268993962335E-1    7.714490703641413E-1
 7.755500000000000E+10  -1.649473495471817E-1    8.651719696774847E-1    2.103385567341343E-2    7.328346561975125E-3    2.317187870089047E-2   -1.341304323298674E-3   -2.638784698106536E-1    7.885990190569971E-1
 7.759000000000000E+10  -1.315572179759875E-1    8.788249369124869E-1    2.155479689682454E-2    6.502113614299927E-3    2.301396441352506E-2   -2.463451625750975E-3   -2.313618875718323E-1    8.005241477104756E-1
 7.762500000000000E+10  -8.978666972210192E-2    8.841379300492970E-1    2.185140931212036E-2    5.615700183191566E-3    2.273323569006654E-2   -3.633886468850495E-3   -1.905694449434724E-1    8.087755226044466E-1
 7.766000000000000E+10  -4.398196491955735E-2    8.786531404769554E-1    2.191570173100894E-2    4.562587527920208E-3    2.233210150751557E-2   -4.885432503625140E-3   -1.411282377454089E-1    8.154675108983040E-1
 7.769500000000000E+10   8.697403651436602E-4    8.632469063840128E-1    2.195858466474117E-2    3.700228711780567E-3    2.177410482511622E-2   -6.030185517735358E-3   -9.017818999359221E-2    8.152518117340823E-1
 7.773000000000000E+10   4.240947284127911E-2    8.489435389695977E-1    2.202725193807060E-2    2.550300517705030E-3    2.148398465205063E-2   -7.069422454006581E-3   -3.915243370731087E-2    8.125383136451815E-1
 7.776500000000000E+10   7.281619523338315E-2    8.360922794658948E-1    2.208789592068546E-2    1.604722417660583E-3    2.138565391270681E-2   -7.993910037167332E-3    5.179204728869103E-3    8.055899238378929E-1
 7.780000000000000E+10   1.008063769109900E-1    8.310354249356529E-1    2.220886508551344E-2    5.129871082122634E-4    2.127568257378445E-2   -9.216490973786204E-3    4.781289767079944E-2    8.021232749730156E-1
 7.783500000000000E+10   1.345517894268964E-1    8.296131028372817E-1    2.223201777270854E-2   -6.924364218946703E-4    2.081595355984511E-2   -1.023087836220299E-2    8.771690145153671E-2    7.973082438392048E-1
 7.787000000000000E+10   1.725466905514011E-1    8.208370784219662E-1    2.218744520658559E-2   -1.967583982919568E-3    2.007927172987329E-2   -1.140652447948052E-2    1.228836888435222E-1    7.933741501616267E-1
 7.790500000000000E+10   2.130811260427722E-1    8.089669650970519E-1    2.217134958241268E-2   -3.321390973494007E-3    1.918157759920434E-2   -1.254050342119426E-2    1.545103552813015E-1    7.882584969885063E-1
 7.794000000000000E+10   2.460617411474091E-1    8.035577813035811E-1    2.207657527211237E-2   -4.338718129902266E-3    1.817973610112267E-2   -1.365603262527865E-2    1.883350139164592E-1    7.826973890334238E-1
 7.797500000000000E+10   2.835211719391318E-1    7.928619095354794E-1    2.189826779217663E-2   -5.482613924264900E-3    1.690167558912065E-2   -1.472901563833148E-2    2.296707919860357E-1    7.705241347643091E-1
 7.801000000000000E+10   3.223632183068840E-1    7.893965739293017E-1    2.167295137025944E-2   -6.621044777486132E-3    1.638202889905302E-2   -1.567112173729758E-2    2.668808628418765E-1    7.574720474696622E-1
 7.804500000000000E+10   3.675336326858022E-1    7.655529528001513E-1    2.111025677669562E-2   -7.921467228952293E-3    1.579117532105939E-2   -1.684524262088536E-2    3.077879910754776E-1    7.368585618896940E-1
 7.808000000000000E+10   4.066490317893171E-1    7.274088169444131E-1    2.059329944607278E-2   -9.068335448827895E-3    1.506978624858489E-2   -1.770319803981148E-2    3.484033034998084E-1    7.121382766337706E-1
 7.811500000000000E+10   4.358571384346554E-1    6.988568366870240E-1    1.998875080408227E-2   -1.034005567191550E-2    1.412191418730141E-2   -1.856121718708906E-2    3.892320535075682E-1    6.830256974232103E-1
 7.815000000000000E+10   4.620934419153637E-1    6.749440992849691E-1    1.944327418165250E-2   -1.129808200140565E-2    1.310455742081099E-2   -1.918561154480721E-2    4.256356541195568E-1    6.518983772143507E-1
