#  HZ   S   RI   R     50.00 
! Rohde & Schwarz Vector Network Analyzer 
! Rohde-Schwarz,ZNA50-4Port,1332450054101417,2.92
! Created: UTC 11/21/2024, 1:17:55 PM
! freq[Hz]                re:S11                  im:S11                  re:S21                  im:S21                  re:S12                  im:S12                  re:S22                  im:S22
 7.500000000000000E+10  -2.570085058981473E-1   -7.497566887235909E-1    6.162724897759083E-5   -2.935157511814620E-4    4.269422496488614E-5   -2.955217538242858E-4   -1.753683972028597E-1   -8.115477573984091E-1
 7.503500000000000E+10  -2.768401871927053E-1   -7.386692056239552E-1    5.543988818990163E-5   -2.909696850954248E-4    2.495070841904992E-5   -2.876148007052938E-4   -2.083319725868551E-1   -8.028824068020530E-1
 7.507000000000000E+10  -2.896452107973828E-1   -7.276132927707702E-1    4.860185363907950E-5   -2.857586519831785E-4    1.668471302966128E-5   -2.898264870217535E-4   -2.367264561052731E-1   -7.993314562588789E-1
 7.510500000000000E+10  -3.188092010673433E-1   -7.110538742018000E-1    3.629063737672760E-5   -2.789832191075674E-4   -6.567738475688154E-6   -2.879488946498516E-4   -2.697903864189529E-1   -7.851327943191596E-1
 7.514000000000000E+10  -3.552612266887460E-1   -6.891869158798549E-1    1.644049424311418E-5   -2.748446143612934E-4   -2.441644538489149E-5   -2.862828597206832E-4   -3.134868506666320E-1   -7.600038623952068E-1
 7.517500000000000E+10  -3.872581674300723E-1   -6.686225807668894E-1   -1.006371760353712E-5   -2.701100796764401E-4   -4.236295335378000E-5   -2.764745797765688E-4   -3.519579751685604E-1   -7.371529049008034E-1
 7.521000000000000E+10  -4.161290842420475E-1   -6.505353646596799E-1   -2.397677010791117E-5   -2.655095585582417E-4   -6.021579221087121E-5   -2.620602079119479E-4   -3.781271354570971E-1   -7.159254286497183E-1
 7.524500000000000E+10  -4.450260393760656E-1   -6.336259491602202E-1   -3.724948894096246E-5   -2.658633685636925E-4   -7.098607767697156E-5   -2.530471983229477E-4   -4.106579499001604E-1   -7.010301407117221E-1
 7.528000000000000E+10  -4.744294136790694E-1   -6.126654435279998E-1   -5.210884718977866E-5   -2.591850285546217E-4   -8.141671007776702E-5   -2.494526830149196E-4   -4.473043287065215E-1   -6.840749498832766E-1
 7.531500000000000E+10  -5.028196250623903E-1   -5.906519868863050E-1   -6.185868720003847E-5   -2.528998752272512E-4   -1.003892963078983E-4   -2.385338652247292E-4   -4.825817762990900E-1   -6.660276676892289E-1
 7.535000000000000E+10  -5.287618903780479E-1   -5.680668295442852E-1   -7.295873327264314E-5   -2.457095957543644E-4   -1.167161901912348E-4   -2.288021522368011E-4   -5.187996257915285E-1   -6.415631317030164E-1
 7.538500000000000E+10  -5.548681735455313E-1   -5.451484952509800E-1   -9.025325521573261E-5   -2.354565682632896E-4   -1.238874770249495E-4   -2.162548404053415E-4   -5.556266284003738E-1   -6.076147051435780E-1
 7.542000000000000E+10  -5.776721590972557E-1   -5.162134609908835E-1   -1.039106891558062E-4   -2.266918280330399E-4   -1.409418200058612E-4   -2.085817083420918E-4   -5.861926504435755E-1   -5.799466498927298E-1
 7.545500000000000E+10  -5.974023654205546E-1   -4.907580353099836E-1   -1.134116336836549E-4   -2.153752671244738E-4   -1.390450750973753E-4   -2.002461596052029E-4   -6.070870023033629E-1   -5.661578038265876E-1
 7.549000000000000E+10  -6.178187609115900E-1   -4.631443972481597E-1   -1.183899659125645E-4   -2.094571203318920E-4   -1.483210724574461E-4   -1.884343679326586E-4   -6.256625806904902E-1   -5.568287911764911E-1
 7.552500000000000E+10  -6.373914266122611E-1   -4.348680152976999E-1   -1.274791268732751E-4   -2.038717629478750E-4   -1.509204458912898E-4   -1.758767612695227E-4   -6.454580739705666E-1   -5.389317053973752E-1
 7.556000000000000E+10  -6.558323274374064E-1   -4.074645726757350E-1   -1.377662276720723E-4   -1.937223663177935E-4   -1.599941083120510E-4   -1.588103809255079E-4   -6.678886611729056E-1   -5.077277633455008E-1
 7.559500000000000E+10  -6.727085579263054E-1   -3.781182293273118E-1   -1.442675358993144E-4   -1.796703746484159E-4   -1.614925453555835E-4   -1.484427794662850E-4   -6.873890873770198E-1   -4.740975149106911E-1
 7.563000000000000E+10  -6.884617997237643E-1   -3.467846266789295E-1   -1.511145330978127E-4   -1.661830227449071E-4   -1.655531815786294E-4   -1.365493927703277E-4   -7.031008461759786E-1   -4.358121737379755E-1
 7.566500000000000E+10  -7.024812300348137E-1   -3.135239849951865E-1   -1.558021177999039E-4   -1.493735745754275E-4   -1.651415650885241E-4   -1.255294006408410E-4   -7.156614671416218E-1   -3.913808923331342E-1
 7.570000000000000E+10  -7.140998781494314E-1   -2.779631422431282E-1   -1.572402208126638E-4   -1.321205990422112E-4   -1.663115959673841E-4   -1.152911717442837E-4   -7.286208907073055E-1   -3.409560081764472E-1
 7.573500000000000E+10  -7.249705916374115E-1   -2.460845208578127E-1   -1.635013517325520E-4   -1.229744686537812E-4   -1.696725546089939E-4   -1.006852358889906E-4   -7.427044822663408E-1   -3.033987937750400E-1
 7.577000000000000E+10  -7.346515691705611E-1   -2.146763554667176E-1   -1.646517512327624E-4   -1.150971761242414E-4   -1.780353697728138E-4   -9.203860464440788E-5   -7.553488091515834E-1   -2.950363175211407E-1
 7.580500000000000E+10  -7.445039353808824E-1   -1.834702491141986E-1   -1.679784724563565E-4   -1.076095466776509E-4   -1.810660532446712E-4   -9.008019065003045E-5   -7.725358396933525E-1   -2.720058249626039E-1
 7.584000000000000E+10  -7.526506406480802E-1   -1.507911260406989E-1   -1.748543130634486E-4   -9.647525557626772E-5   -1.751021898218492E-4   -7.605385068805225E-5   -7.873996300094824E-1   -2.403636743910658E-1
 7.587500000000000E+10  -7.601077851804581E-1   -1.149026748235797E-1   -1.712893777002634E-4   -8.125453181551162E-5   -1.680088875534544E-4   -6.979504573874715E-5   -8.010587427562070E-1   -1.937731381016439E-1
 7.591000000000000E+10  -7.646726719016387E-1   -7.749652045155754E-2   -1.719954616507613E-4   -7.234931453868975E-5   -1.646738154080587E-4   -5.700872077541665E-5   -8.103905121909534E-1   -1.394960829986879E-1
 7.594500000000000E+10  -7.667382147346212E-1   -3.930406205875809E-2   -1.726376846614129E-4   -6.446999187205435E-5   -1.715454893799328E-4   -4.552028014690811E-5   -8.139443406516028E-1   -9.372018344606815E-2
 7.598000000000000E+10  -7.641157381234942E-1   -1.941966543173401E-4   -1.719903489617652E-4   -5.343225216447361E-5   -1.707382724964495E-4   -3.596169547647638E-5   -8.151611697813638E-1   -5.524895131490945E-2
 7.601500000000000E+10  -7.615562563191285E-1    3.616115898976233E-2   -1.707968745645596E-4   -4.596685750326733E-5   -1.612805615100073E-4   -2.496606485831057E-5   -8.196555263931606E-1   -2.929283286795771E-2
 7.605000000000000E+10  -7.599956800113936E-1    6.829174775307645E-2   -1.694096712793179E-4   -4.046460202836196E-5   -1.657782792343926E-4   -2.304024895743544E-5   -8.257874279135369E-1   -7.945446437565206E-3
 7.608500000000000E+10  -7.572634241388460E-1    9.718445939081509E-2   -1.693877092936760E-4   -3.391973839195711E-5   -1.651720126693218E-4   -1.514030848620978E-5   -8.317254637235493E-1    1.999600372239596E-2
 7.612000000000000E+10  -7.543968337509570E-1    1.281636198349706E-1   -1.663516884806244E-4   -2.716997460037369E-5   -1.605007207700159E-4   -7.095035745234313E-6   -8.298328670936057E-1    5.834337947334603E-2
 7.615500000000000E+10  -7.504093049881618E-1    1.571897205169015E-1   -1.621637638591899E-4   -2.230567360832476E-5   -1.597018017708586E-4   -2.407455133231210E-7   -8.176027851134856E-1    1.002736263736458E-1
 7.619000000000000E+10  -7.435728115870218E-1    1.910518203958436E-1   -1.598840368358596E-4   -1.096937174992816E-5   -1.525157750386300E-4    1.310398143926310E-5   -8.003672241350946E-1    1.410059158560924E-1
 7.622500000000000E+10  -7.329236616011382E-1    2.243995749632603E-1   -1.571364547550039E-4   -2.993194199796415E-6   -1.487597027032972E-4    2.149309420928123E-5   -7.864179510464969E-1    1.792314349612098E-1
 7.626000000000000E+10  -7.182257505425236E-1    2.625576636997805E-1   -1.521953712752018E-4    2.468824118066179E-6   -1.402652671092688E-4    2.460168945594704E-5   -7.771235890115318E-1    2.142457550432878E-1
 7.629500000000000E+10  -7.008184801811648E-1    2.984742615034213E-1   -1.477809625292967E-4    6.904136733161504E-6   -1.442826986632642E-4    2.511604474910707E-5   -7.725280891302555E-1    2.484304875576141E-1
 7.633000000000000E+10  -6.850223596286125E-1    3.319037559976288E-1   -1.493490765475853E-4    1.327803454153755E-5   -1.436926208238977E-4    3.976960611260050E-5   -7.682188146143629E-1    2.832261602483471E-1
 7.636500000000000E+10  -6.717136129051093E-1    3.612064656510825E-1   -1.450910778630301E-4    1.818194460778357E-5   -1.299515366525985E-4    4.201907495509324E-5   -7.595132859015602E-1    3.178086888349517E-1
 7.640000000000000E+10  -6.582845996468186E-1    3.907667783390355E-1   -1.401291404930612E-4    2.293085951066997E-5   -1.342727037621932E-4    3.792009363694523E-5   -7.486829579987999E-1    3.494894501991931E-1
 7.643500000000000E+10  -6.440790686839375E-1    4.178744436231210E-1   -1.394168553282477E-4    2.900760397167170E-5   -1.272548925148131E-4    4.248863315408522E-5   -7.330062561894577E-1    3.806750631526183E-1
 7.647000000000000E+10  -6.268050417073545E-1    4.473782571583715E-1   -1.377976165085924E-4    3.402161848042710E-5   -1.329515186467582E-4    4.314119715192163E-5   -7.117027265009148E-1    4.099401746803983E-1
 7.650500000000000E+10  -6.044473524270008E-1    4.744475588088986E-1   -1.344286272451891E-4    3.391682059705620E-5   -1.254943252558041E-4    5.394234025392276E-5   -6.873756730969587E-1    4.386577418029686E-1
 7.654000000000000E+10  -5.833192059557725E-1    5.011574176092589E-1   -1.245997844650669E-4    4.300373864827751E-5   -1.141278740310253E-4    6.286129715930289E-5   -6.559686253370939E-1    4.686717551682343E-1
 7.657500000000000E+10  -5.607707734217542E-1    5.268528348617525E-1   -1.210503186015056E-4    5.085555058691865E-5   -1.079734651932998E-4    5.520335146522022E-5   -6.307323312115890E-1    4.980791108864723E-1
 7.661000000000000E+10  -5.372828547933717E-1    5.507407975479203E-1   -1.195277178793817E-4    5.173326547552623E-5   -1.094474433162462E-4    5.185505075975627E-5   -6.113409129061510E-1    5.329030592236738E-1
 7.664500000000000E+10  -5.132944334845019E-1    5.745306215489159E-1   -1.142487177479054E-4    5.566757476550432E-5   -1.047066763624591E-4    5.513616187469131E-5   -5.942070582566253E-1    5.660990685200691E-1
 7.668000000000000E+10  -4.875663490326163E-1    5.961454032532941E-1   -1.105883947271991E-4    5.783604530421072E-5   -1.032819607454318E-4    6.851750377961142E-5   -5.766254390174640E-1    5.945930191413413E-1
 7.671500000000000E+10  -4.618034010345939E-1    6.162405070301716E-1   -1.012305365076737E-4    6.403098423280253E-5   -9.790329188513049E-5    6.998858078508242E-5   -5.553713386998147E-1    6.161116791387450E-1
 7.675000000000000E+10  -4.356816103965622E-1    6.355330086882774E-1   -9.871338301693456E-5    6.484133407793422E-5   -8.886025462407921E-5    7.394417309531280E-5   -5.279763348294426E-1    6.360584319908132E-1
 7.678500000000000E+10  -4.092807489989273E-1    6.543680372006039E-1   -9.204232368774540E-5    6.437321688439144E-5   -8.532285853915159E-5    7.240111330538259E-5   -4.971183599731454E-1    6.559273641070058E-1
 7.682000000000000E+10  -3.814581885195608E-1    6.716466198830631E-1   -9.012120273930146E-5    6.467261097147141E-5   -7.642793399579035E-5    7.480961182660860E-5   -4.662099315551291E-1    6.737101179553526E-1
 7.685500000000000E+10  -3.546533780882845E-1    6.874848055084812E-1   -8.952722286427388E-5    6.318453254627646E-5   -8.152034027031815E-5    7.752061315359856E-5   -4.326002828271643E-1    6.928213126121699E-1
 7.689000000000000E+10  -3.255157911631730E-1    7.025145415429516E-1   -8.879162666875275E-5    7.248996418122223E-5   -6.927511979206657E-5    8.789458573845607E-5   -3.994818958493576E-1    7.092156046371207E-1
 7.692500000000000E+10  -2.937449708951910E-1    7.181669157169488E-1   -8.444743510422069E-5    7.048577266921653E-5   -5.973446234867590E-5    7.761413984073219E-5   -3.693924437586218E-1    7.249126230377144E-1
 7.696000000000000E+10  -2.601593320756198E-1    7.315687536053010E-1   -7.923121165509775E-5    7.076857986331875E-5   -7.072990470554696E-5    7.557999958378490E-5   -3.372011171579465E-1    7.400883483300155E-1
 7.699500000000000E+10  -2.267058760776416E-1    7.425227019409197E-1   -7.895580825805640E-5    7.454122824414238E-5   -6.633581750496332E-5    7.936700403942655E-5   -3.045577306617903E-1    7.623495082061834E-1
 7.703000000000000E+10  -1.945528597307821E-1    7.524300905497325E-1   -7.505245944141865E-5    7.688538968463414E-5   -6.180147461088602E-5    8.495517063617509E-5   -2.663594243255927E-1    7.872251163072163E-1
 7.706500000000000E+10  -1.613056797168107E-1    7.607409050319768E-1   -6.823660226260310E-5    7.971826155372724E-5   -5.322150929947962E-5    9.043897630106898E-5   -2.221766986079906E-1    8.031576548323955E-1
 7.710000000000000E+10  -1.277636670994413E-1    7.682635648702312E-1   -6.323899622438382E-5    7.952715674043641E-5   -4.588088890645260E-5    8.773169166498113E-5   -1.783637105570580E-1    8.085274669271698E-1
 7.713500000000000E+10  -9.358020063535197E-2    7.738234839301663E-1   -6.284127048223880E-5    7.969718961476471E-5   -4.425373208824505E-5    8.866373311111647E-5   -1.349850777593586E-1    8.166095906867961E-1
 7.717000000000000E+10  -5.810810040817298E-2    7.782755449265903E-1   -5.980637154121884E-5    8.079148003976855E-5   -4.040580097805105E-5    8.144550739471261E-5   -1.028530773970896E-1    8.217026603351252E-1
 7.720500000000000E+10  -2.238070726644762E-2    7.813485922006563E-1   -5.771709598128080E-5    7.930885971165031E-5   -4.206585089874754E-5    7.441376027508926E-5   -7.675178347480964E-2    8.229653546601617E-1
 7.724000000000000E+10   9.708579489438436E-3    7.813882889248510E-1   -5.574412004380836E-5    8.129810398660070E-5   -4.219430637247307E-5    8.343296745202279E-5   -4.763162225929431E-2    8.225477227799030E-1
 7.727500000000000E+10   4.248946148139270E-2    7.778480671449964E-1   -5.081531518893196E-5    8.516802193301314E-5   -3.725441435411102E-5    8.748116371765961E-5   -1.417801832265726E-2    8.173711868595980E-1
 7.731000000000000E+10   7.785584006299008E-2    7.715317611517575E-1   -4.051756293674867E-5    8.930884974368867E-5   -2.901935436242677E-5    8.992818757431900E-5    2.320052821352887E-2    8.084155223061061E-1
 7.734500000000000E+10   1.143033233148074E-1    7.642728511701430E-1   -3.220943163135783E-5    8.574535414256679E-5   -2.308393496347764E-5    8.180342895721044E-5    6.269352592810824E-2    8.014200495340600E-1
 7.738000000000000E+10   1.523807673344634E-1    7.562768453678551E-1   -3.161827749628641E-5    8.488037588114830E-5   -2.614426026281493E-5    7.789556108283139E-5    1.008457764320193E-1    7.964493336491707E-1
 7.741500000000000E+10   1.881418541511657E-1    7.464022655793608E-1   -3.045449991844755E-5    8.625406406442853E-5   -2.952769258573146E-5    8.558456429034873E-5    1.406818202423666E-1    7.922662063854418E-1
 7.745000000000000E+10   2.221661996665638E-1    7.367049044451818E-1   -2.811390391954330E-5    9.027306450587634E-5   -2.032556327923260E-5    9.053182186389343E-5    1.817943570231220E-1    7.903717009858136E-1
 7.748500000000000E+10   2.523435745493362E-1    7.280356901322269E-1   -2.407476716644598E-5    9.196260281965397E-5   -9.860088633033584E-6    8.920788955210032E-5    2.160771254656400E-1    7.884875948659531E-1
 7.752000000000000E+10   2.785424518434210E-1    7.214397003457963E-1   -2.064250287021453E-5    9.127697125105977E-5   -9.900185751290722E-6    8.582897276896494E-5    2.478481002370678E-1    7.878048547998771E-1
 7.755500000000000E+10   3.046983680995718E-1    7.133391299398123E-1   -1.841705335022364E-5    8.975705403098070E-5   -6.323742590645292E-6    7.878716555703038E-5    2.804012373578287E-1    7.826881344807237E-1
 7.759000000000000E+10   3.326261568304520E-1    7.019488515863812E-1   -1.077890615512872E-5    8.788686889652270E-5   -1.619403465226186E-6    8.186747498004016E-5    3.147103377383110E-1    7.714923130831898E-1
 7.762500000000000E+10   3.632702444391980E-1    6.842634805452913E-1   -9.601331236943939E-6    8.556403997951282E-5   -5.794900277307905E-6    8.664011991410067E-5    3.476655159314665E-1    7.582650905168565E-1
 7.766000000000000E+10   3.962839884588991E-1    6.620423308593126E-1   -1.044480663300159E-5    8.463269675066919E-5   -1.894434037068816E-6    8.120199971920335E-5    3.791872511479648E-1    7.438825786337995E-1
 7.769500000000000E+10   4.272159059604073E-1    6.368131674720289E-1   -6.728696116697431E-6    8.419692372360822E-5    3.747437221666334E-7    8.113426151792648E-5    4.079281511217870E-1    7.217712133849014E-1
 7.773000000000000E+10   4.547109578509489E-1    6.132743589181685E-1   -2.157946630489498E-6    8.182415387988874E-5    2.298856251337787E-7    7.852409908581357E-5    4.353230334140185E-1    6.939247956867943E-1
 7.776500000000000E+10   4.792262333848964E-1    5.920910628592057E-1   -2.073275754546071E-6    7.672673050893101E-5    3.889340875685685E-6    7.957396311584793E-5    4.614560967850697E-1    6.707436096714333E-1
 7.780000000000000E+10   5.034515894403953E-1    5.729246310125438E-1   -5.997197146221183E-8    7.910383818294982E-5    4.560881147401335E-6    8.457575967438230E-5    4.855301652541019E-1    6.529081365241445E-1
 7.783500000000000E+10   5.268592780098158E-1    5.544813580700197E-1    2.846938392842789E-6    7.940045348949600E-5    7.958346413510311E-6    7.966734112169440E-5    5.124100354452347E-1    6.301801164201488E-1
 7.787000000000000E+10   5.486791390133215E-1    5.364855400119748E-1    5.171463798576484E-6    7.802345222281937E-5    1.335385362561157E-5    7.750864248492001E-5    5.384671259435366E-1    5.998009166253527E-1
 7.790500000000000E+10   5.701138353150725E-1    5.170996369534419E-1    9.040583625016633E-6    7.531856724777706E-5    1.375083320689231E-5    7.585555258307635E-5    5.630062812569022E-1    5.726254343937981E-1
 7.794000000000000E+10   5.918492266163170E-1    4.945936656293231E-1    1.255411909467909E-5    7.522631699062634E-5    1.715337955367974E-5    7.146475706057213E-5    5.876108901799745E-1    5.502734719424607E-1
 7.797500000000000E+10   6.127003128343809E-1    4.680360295003207E-1    1.663137496320734E-5    7.393782790475532E-5    2.299264239924034E-5    6.867681400061444E-5    6.093637560165132E-1    5.389318744498173E-1
 7.801000000000000E+10   6.328341256154668E-1    4.386301470141268E-1    1.887620504554088E-5    6.914534286928162E-5    2.540578956113773E-5    6.325384574501838E-5    6.392252300422873E-1    5.305881702672559E-1
 7.804500000000000E+10   6.521406184260783E-1    4.059239258977569E-1    1.856581329007432E-5    6.828270859307267E-5    2.687221101707572E-5    6.493479027952628E-5    6.732198176464932E-1    5.054012493995680E-1
 7.808000000000000E+10   6.685841924535038E-1    3.721197405245381E-1    1.973316945007057E-5    7.019702649160620E-5    2.498840263117657E-5    6.389044855618852E-5    6.993400293754192E-1    4.570957168806843E-1
 7.811500000000000E+10   6.826150514499876E-1    3.391952229123114E-1    2.438657206270177E-5    6.814727721167919E-5    3.131807273447410E-5    6.308960210454692E-5    7.110943639983548E-1    4.004720461827864E-1
 7.815000000000000E+10   6.954506040952684E-1    3.079196089666137E-1    2.592123261376152E-5    6.702692666104452E-5    3.010469065164705E-5    6.412922102768814E-5    7.132065042310207E-1    3.582875434335672E-1
