!Keysight Technologies,P5003A,MY58100335,A.14.10.03
!Date: Thursday, June 04, 2026 18:41:35
!Correction: S11(Off) 
!S21(Off) 
!S12(Off) 
!S22(Off) 
!S2P File: Measurement: :
# Hz S  dB   R 50
3000000000 -200 45 7.2635989 -73.964745 -200 45 -200 45
3000060000 -200 45 7.2914748 -74.701355 -200 45 -200 45
3000120000 -200 45 7.3022218 -74.962196 -200 45 -200 45
3000180000 -200 45 7.293396 -75.476662 -200 45 -200 45
3000240000 -200 45 7.2666087 -75.869019 -200 45 -200 45
3000300000 -200 45 7.2571898 -76.844246 -200 45 -200 45
3000360000 -200 45 7.2673635 -77.059113 -200 45 -200 45
3000420000 -200 45 7.2446408 -77.716515 -200 45 -200 45
3000480000 -200 45 7.2757311 -78.059273 -200 45 -200 45
3000540000 -200 45 7.245728 -78.518028 -200 45 -200 45
3000600000 -200 45 7.2406588 -79.17157 -200 45 -200 45
3000660000 -200 45 7.24016 -79.245888 -200 45 -200 45
3000720000 -200 45 7.2906408 -80.103157 -200 45 -200 45
3000780000 -200 45 7.25806 -80.575691 -200 45 -200 45
3000840000 -200 45 7.2851157 -80.961502 -200 45 -200 45
3000900000 -200 45 7.2818975 -81.687096 -200 45 -200 45
3000960000 -200 45 7.2618704 -82.408417 -200 45 -200 45
3001020000 -200 45 7.2029791 -82.912178 -200 45 -200 45
3001080000 -200 45 7.2447901 -83.137344 -200 45 -200 45
3001140000 -200 45 7.2588968 -83.946152 -200 45 -200 45
3001200000 -200 45 7.2550006 -84.064751 -200 45 -200 45
3001260000 -200 45 7.2416906 -84.55307 -200 45 -200 45
3001320000 -200 45 7.2628689 -85.375931 -200 45 -200 45
3001380000 -200 45 7.2285805 -85.712219 -200 45 -200 45
3001440000 -200 45 7.1946545 -86.255249 -200 45 -200 45
3001500000 -200 45 7.2631378 -86.572006 -200 45 -200 45
3001560000 -200 45 7.2658682 -87.374779 -200 45 -200 45
3001620000 -200 45 7.2558627 -87.881569 -200 45 -200 45
3001680000 -200 45 7.2834239 -88.40638 -200 45 -200 45
3001740000 -200 45 7.2426653 -88.995079 -200 45 -200 45
3001800000 -200 45 7.2704568 -89.31926 -200 45 -200 45
3001860000 -200 45 7.265398 -89.743759 -200 45 -200 45
3001920000 -200 45 7.2435112 -90.450653 -200 45 -200 45
3001980000 -200 45 7.2415328 -90.951889 -200 45 -200 45
3002040000 -200 45 7.2573576 -91.220085 -200 45 -200 45
3002100000 -200 45 7.2152443 -91.889046 -200 45 -200 45
3002160000 -200 45 7.2635612 -92.207565 -200 45 -200 45
3002220000 -200 45 7.2750311 -92.561028 -200 45 -200 45
3002280000 -200 45 7.2548122 -93.311371 -200 45 -200 45
3002340000 -200 45 7.2718339 -93.904449 -200 45 -200 45
3002400000 -200 45 7.2594748 -94.572472 -200 45 -200 45
3002460000 -200 45 7.2370291 -94.808907 -200 45 -200 45
3002520000 -200 45 7.2725158 -95.39917 -200 45 -200 45
3002580000 -200 45 7.2237272 -95.764801 -200 45 -200 45
3002640000 -200 45 7.2413387 -96.280289 -200 45 -200 45
3002700000 -200 45 7.2837133 -96.854065 -200 45 -200 45
3002760000 -200 45 7.2493601 -97.421417 -200 45 -200 45
3002820000 -200 45 7.2915854 -97.836975 -200 45 -200 45
3002880000 -200 45 7.2497883 -98.295174 -200 45 -200 45
3002940000 -200 45 7.2345781 -99.034691 -200 45 -200 45
3003000000 -200 45 7.2340751 -99.336815 -200 45 -200 45
3003060000 -200 45 7.2486129 -99.902061 -200 45 -200 45
3003120000 -200 45 7.2475891 -100.29952 -200 45 -200 45
3003180000 -200 45 7.2180595 -100.81502 -200 45 -200 45
3003240000 -200 45 7.2175288 -101.36613 -200 45 -200 45
3003300000 -200 45 7.2068772 -101.79292 -200 45 -200 45
3003360000 -200 45 7.2375746 -102.56917 -200 45 -200 45
3003420000 -200 45 7.2139387 -102.84319 -200 45 -200 45
3003480000 -200 45 7.2328863 -103.14554 -200 45 -200 45
3003540000 -200 45 7.2503643 -103.87135 -200 45 -200 45
3003600000 -200 45 7.2526922 -104.34243 -200 45 -200 45
3003660000 -200 45 7.2142715 -104.91468 -200 45 -200 45
3003720000 -200 45 7.2205868 -105.33253 -200 45 -200 45
3003780000 -200 45 7.2810411 -105.71968 -200 45 -200 45
3003840000 -200 45 7.2443333 -106.17618 -200 45 -200 45
3003900000 -200 45 7.2431917 -107.09774 -200 45 -200 45
3003960000 -200 45 7.2065773 -107.32556 -200 45 -200 45
3004020000 -200 45 7.1981502 -108.02576 -200 45 -200 45
3004080000 -200 45 7.2190614 -108.30399 -200 45 -200 45
3004140000 -200 45 7.2096257 -109.07456 -200 45 -200 45
3004200000 -200 45 7.1921172 -109.68346 -200 45 -200 45
3004260000 -200 45 7.2314191 -110.02864 -200 45 -200 45
3004320000 -200 45 7.2223635 -110.45157 -200 45 -200 45
3004380000 -200 45 7.1715155 -111.13307 -200 45 -200 45
3004440000 -200 45 7.2142067 -111.35545 -200 45 -200 45
3004500000 -200 45 7.1913724 -112.13067 -200 45 -200 45
3004560000 -200 45 7.1491108 -112.91366 -200 45 -200 45
3004620000 -200 45 7.2222242 -112.9652 -200 45 -200 45
3004680000 -200 45 7.1613531 -113.5791 -200 45 -200 45
3004740000 -200 45 7.19769 -114.13683 -200 45 -200 45
3004800000 -200 45 7.161643 -114.80872 -200 45 -200 45
3004860000 -200 45 7.1691775 -115.12172 -200 45 -200 45
3004920000 -200 45 7.1623831 -115.28249 -200 45 -200 45
3004980000 -200 45 7.2019992 -116.14182 -200 45 -200 45
3005040000 -200 45 7.1700587 -116.54617 -200 45 -200 45
3005100000 -200 45 7.2340617 -117.23919 -200 45 -200 45
3005160000 -200 45 7.1896057 -117.60772 -200 45 -200 45
3005220000 -200 45 7.2065225 -118.05198 -200 45 -200 45
3005280000 -200 45 7.224812 -118.71559 -200 45 -200 45
3005340000 -200 45 7.1790051 -119.08634 -200 45 -200 45
3005400000 -200 45 7.1761894 -119.60596 -200 45 -200 45
3005460000 -200 45 7.2583938 -120.11438 -200 45 -200 45
3005520000 -200 45 7.2161393 -120.60718 -200 45 -200 45
3005580000 -200 45 7.2186089 -121.2072 -200 45 -200 45
3005640000 -200 45 7.1643848 -121.45753 -200 45 -200 45
3005700000 -200 45 7.1759782 -122.41834 -200 45 -200 45
3005760000 -200 45 7.159656 -122.38496 -200 45 -200 45
3005820000 -200 45 7.1455584 -123.26908 -200 45 -200 45
3005880000 -200 45 7.1668859 -123.73312 -200 45 -200 45
3005940000 -200 45 7.1457009 -124.08107 -200 45 -200 45
3006000000 -200 45 7.1856666 -124.59673 -200 45 -200 45
3006060000 -200 45 7.188345 -125.33288 -200 45 -200 45
3006120000 -200 45 7.1814818 -125.47208 -200 45 -200 45
3006180000 -200 45 7.1654134 -126.31618 -200 45 -200 45
3006240000 -200 45 7.1864638 -126.76862 -200 45 -200 45
3006300000 -200 45 7.1722803 -127.14606 -200 45 -200 45
3006360000 -200 45 7.1570206 -127.78112 -200 45 -200 45
3006420000 -200 45 7.2155075 -128.11604 -200 45 -200 45
3006480000 -200 45 7.204391 -128.8896 -200 45 -200 45
3006540000 -200 45 7.1979127 -129.45239 -200 45 -200 45
3006600000 -200 45 7.2011795 -129.5144 -200 45 -200 45
3006660000 -200 45 7.1437559 -130.19818 -200 45 -200 45
3006720000 -200 45 7.165309 -130.68526 -200 45 -200 45
3006780000 -200 45 7.1953964 -131.1852 -200 45 -200 45
3006840000 -200 45 7.1839337 -131.57918 -200 45 -200 45
3006900000 -200 45 7.1768904 -132.00191 -200 45 -200 45
3006960000 -200 45 7.1293445 -132.55424 -200 45 -200 45
3007020000 -200 45 7.1708651 -133.38263 -200 45 -200 45
3007080000 -200 45 7.1799054 -134.01598 -200 45 -200 45
3007140000 -200 45 7.1831264 -134.11971 -200 45 -200 45
3007200000 -200 45 7.1953974 -134.70511 -200 45 -200 45
3007260000 -200 45 7.1596351 -135.21021 -200 45 -200 45
3007320000 -200 45 7.1376491 -135.49347 -200 45 -200 45
3007380000 -200 45 7.1641479 -136.49045 -200 45 -200 45
3007440000 -200 45 7.1692982 -136.7556 -200 45 -200 45
3007500000 -200 45 7.1192026 -137.38641 -200 45 -200 45
3007560000 -200 45 7.1560173 -137.77078 -200 45 -200 45
3007620000 -200 45 7.1571217 -138.24596 -200 45 -200 45
3007680000 -200 45 7.0993357 -138.77548 -200 45 -200 45
3007740000 -200 45 7.1052461 -139.63768 -200 45 -200 45
3007800000 -200 45 7.0967531 -140.17769 -200 45 -200 45
3007860000 -200 45 7.1234512 -140.50031 -200 45 -200 45
3007920000 -200 45 7.1121917 -140.91351 -200 45 -200 45
3007980000 -200 45 7.1145563 -141.30098 -200 45 -200 45
3008040000 -200 45 7.1431556 -141.72606 -200 45 -200 45
3008100000 -200 45 7.1440053 -142.28552 -200 45 -200 45
3008160000 -200 45 7.1644268 -142.77721 -200 45 -200 45
3008220000 -200 45 7.1062951 -143.21545 -200 45 -200 45
3008280000 -200 45 7.1454692 -143.89374 -200 45 -200 45
3008340000 -200 45 7.1492152 -144.36877 -200 45 -200 45
3008400000 -200 45 7.1541252 -144.78084 -200 45 -200 45
3008460000 -200 45 7.1443949 -145.69525 -200 45 -200 45
3008520000 -200 45 7.1629596 -145.7475 -200 45 -200 45
3008580000 -200 45 7.1817551 -146.09532 -200 45 -200 45
3008640000 -200 45 7.1540403 -147.06136 -200 45 -200 45
3008700000 -200 45 7.1632514 -147.24635 -200 45 -200 45
3008760000 -200 45 7.1762218 -147.9189 -200 45 -200 45
3008820000 -200 45 7.1380877 -148.48491 -200 45 -200 45
3008880000 -200 45 7.1605973 -148.89552 -200 45 -200 45
3008940000 -200 45 7.1402769 -149.48055 -200 45 -200 45
3009000000 -200 45 7.1558051 -149.84656 -200 45 -200 45
3009060000 -200 45 7.1035776 -150.61761 -200 45 -200 45
3009120000 -200 45 7.1285586 -151.11339 -200 45 -200 45
3009180000 -200 45 7.1191735 -151.50337 -200 45 -200 45
3009240000 -200 45 7.1064072 -151.98563 -200 45 -200 45
3009300000 -200 45 7.0857806 -152.26837 -200 45 -200 45
3009360000 -200 45 7.0694098 -152.98897 -200 45 -200 45
3009420000 -200 45 7.1080503 -153.41679 -200 45 -200 45
3009480000 -200 45 7.1054792 -153.63261 -200 45 -200 45
3009540000 -200 45 7.1534142 -154.50485 -200 45 -200 45
3009600000 -200 45 7.0862851 -154.89914 -200 45 -200 45
3009660000 -200 45 7.0303636 -155.48817 -200 45 -200 45
3009720000 -200 45 7.0818834 -155.78822 -200 45 -200 45
3009780000 -200 45 7.0835104 -156.55865 -200 45 -200 45
3009840000 -200 45 7.1048217 -156.93695 -200 45 -200 45
3009900000 -200 45 7.0511107 -157.45973 -200 45 -200 45
3009960000 -200 45 7.0804076 -157.73112 -200 45 -200 45
3010020000 -200 45 7.0747104 -158.43907 -200 45 -200 45
3010080000 -200 45 7.0744352 -158.73759 -200 45 -200 45
3010140000 -200 45 7.1207805 -159.24852 -200 45 -200 45
3010200000 -200 45 7.0982938 -159.88385 -200 45 -200 45
3010260000 -200 45 7.1165991 -160.39088 -200 45 -200 45
3010320000 -200 45 7.0826049 -161.16791 -200 45 -200 45
3010380000 -200 45 7.1326313 -161.54796 -200 45 -200 45
3010440000 -200 45 7.1413913 -161.65381 -200 45 -200 45
3010500000 -200 45 7.1144352 -162.45531 -200 45 -200 45
3010560000 -200 45 7.0743585 -162.89481 -200 45 -200 45
3010620000 -200 45 7.0772204 -163.46556 -200 45 -200 45
3010680000 -200 45 7.0752282 -164.03777 -200 45 -200 45
3010740000 -200 45 7.0840664 -164.36732 -200 45 -200 45
3010800000 -200 45 7.0821319 -165.16017 -200 45 -200 45
3010860000 -200 45 7.0430512 -165.43777 -200 45 -200 45
3010920000 -200 45 7.0758152 -166.02226 -200 45 -200 45
3010980000 -200 45 7.0832915 -166.58817 -200 45 -200 45
3011040000 -200 45 7.1080632 -167.07188 -200 45 -200 45
3011100000 -200 45 7.1017075 -167.46712 -200 45 -200 45
3011160000 -200 45 7.1012139 -168.11002 -200 45 -200 45
3011220000 -200 45 7.0682607 -168.46049 -200 45 -200 45
3011280000 -200 45 7.0797582 -168.91466 -200 45 -200 45
3011340000 -200 45 7.0578518 -169.55635 -200 45 -200 45
3011400000 -200 45 7.0408325 -170.23886 -200 45 -200 45
3011460000 -200 45 7.0668764 -170.68373 -200 45 -200 45
3011520000 -200 45 7.0817089 -171.14088 -200 45 -200 45
3011580000 -200 45 7.1058784 -171.5623 -200 45 -200 45
3011640000 -200 45 7.0557761 -171.858 -200 45 -200 45
3011700000 -200 45 7.0802279 -172.65552 -200 45 -200 45
3011760000 -200 45 7.0558863 -173.12021 -200 45 -200 45
3011820000 -200 45 7.0467191 -173.22653 -200 45 -200 45
3011880000 -200 45 7.0402989 -174.15894 -200 45 -200 45
3011940000 -200 45 7.0419807 -174.49435 -200 45 -200 45
3012000000 -200 45 7.0327659 -175.05878 -200 45 -200 45
3012060000 -200 45 7.0944862 -175.63976 -200 45 -200 45
3012120000 -200 45 7.0697284 -175.97125 -200 45 -200 45
3012180000 -200 45 7.053597 -176.58379 -200 45 -200 45
3012240000 -200 45 7.0393386 -177.03514 -200 45 -200 45
3012300000 -200 45 7.0200953 -177.86856 -200 45 -200 45
3012360000 -200 45 7.0018692 -178.15099 -200 45 -200 45
3012420000 -200 45 7.0619035 -178.51367 -200 45 -200 45
3012480000 -200 45 7.0267496 -178.98874 -200 45 -200 45
3012540000 -200 45 7.0356131 -179.49129 -200 45 -200 45
3012600000 -200 45 7.0670619 179.99504 -200 45 -200 45
3012660000 -200 45 6.990222 179.58675 -200 45 -200 45
3012720000 -200 45 7.026433 178.69078 -200 45 -200 45
3012780000 -200 45 6.9916463 178.80144 -200 45 -200 45
3012840000 -200 45 7.0276203 178.00612 -200 45 -200 45
3012900000 -200 45 7.0278511 177.31851 -200 45 -200 45
3012960000 -200 45 7.0077868 176.95634 -200 45 -200 45
3013020000 -200 45 7.0202827 176.55316 -200 45 -200 45
3013080000 -200 45 7.0218687 175.82375 -200 45 -200 45
3013140000 -200 45 6.9802456 175.42963 -200 45 -200 45
3013200000 -200 45 6.9863105 175.04787 -200 45 -200 45
3013260000 -200 45 6.9636493 174.0896 -200 45 -200 45
3013320000 -200 45 7.0167599 173.97421 -200 45 -200 45
3013380000 -200 45 7.0360756 173.38474 -200 45 -200 45
3013440000 -200 45 6.9789248 172.93404 -200 45 -200 45
3013500000 -200 45 6.9996686 172.30466 -200 45 -200 45
3013560000 -200 45 7.0470018 171.9924 -200 45 -200 45
3013620000 -200 45 6.9773626 171.61642 -200 45 -200 45
3013680000 -200 45 6.9711819 171.17065 -200 45 -200 45
3013740000 -200 45 7.0131788 170.29871 -200 45 -200 45
3013800000 -200 45 7.0150952 169.73291 -200 45 -200 45
3013860000 -200 45 7.0191803 169.32181 -200 45 -200 45
3013920000 -200 45 7.0303741 168.80974 -200 45 -200 45
3013980000 -200 45 6.9932175 168.27528 -200 45 -200 45
3014040000 -200 45 6.9892201 167.79842 -200 45 -200 45
3014100000 -200 45 6.9987884 167.33966 -200 45 -200 45
3014160000 -200 45 7.0642228 166.90486 -200 45 -200 45
3014220000 -200 45 6.9799547 166.55649 -200 45 -200 45
3014280000 -200 45 7.0046482 165.89447 -200 45 -200 45
3014340000 -200 45 7.0215092 165.42743 -200 45 -200 45
3014400000 -200 45 7.013823 164.77809 -200 45 -200 45
3014460000 -200 45 6.9911952 164.45259 -200 45 -200 45
3014520000 -200 45 7.0331054 163.67657 -200 45 -200 45
3014580000 -200 45 6.9818101 163.45844 -200 45 -200 45
3014640000 -200 45 6.9627552 163.0696 -200 45 -200 45
3014700000 -200 45 6.9446597 162.6776 -200 45 -200 45
3014760000 -200 45 7.0313921 161.84808 -200 45 -200 45
3014820000 -200 45 6.9974651 161.17484 -200 45 -200 45
3014880000 -200 45 6.9608011 161.00664 -200 45 -200 45
3014940000 -200 45 6.9907317 160.55659 -200 45 -200 45
3015000000 -200 45 6.9843845 159.88036 -200 45 -200 45
3015060000 -200 45 6.9877076 159.62468 -200 45 -200 45
3015120000 -200 45 6.9743094 158.82416 -200 45 -200 45
3015180000 -200 45 6.9433336 158.38147 -200 45 -200 45
3015240000 -200 45 6.957592 157.90056 -200 45 -200 45
3015300000 -200 45 6.9151602 157.10873 -200 45 -200 45
3015360000 -200 45 6.8947001 156.95494 -200 45 -200 45
3015420000 -200 45 6.9296975 156.56223 -200 45 -200 45
3015480000 -200 45 6.9288549 156.0984 -200 45 -200 45
3015540000 -200 45 6.9034395 155.56468 -200 45 -200 45
3015600000 -200 45 6.9309807 154.98216 -200 45 -200 45
3015660000 -200 45 6.9526534 154.45627 -200 45 -200 45
3015720000 -200 45 6.9524374 153.93164 -200 45 -200 45
3015780000 -200 45 6.9521379 153.71227 -200 45 -200 45
3015840000 -200 45 6.9227419 153.09512 -200 45 -200 45
3015900000 -200 45 6.9290204 152.59642 -200 45 -200 45
3015960000 -200 45 6.8992305 151.85916 -200 45 -200 45
3016020000 -200 45 6.9315085 151.4765 -200 45 -200 45
3016080000 -200 45 6.931138 150.7641 -200 45 -200 45
3016140000 -200 45 6.9219747 150.65433 -200 45 -200 45
3016200000 -200 45 6.9211731 149.54063 -200 45 -200 45
3016260000 -200 45 6.929914 149.27895 -200 45 -200 45
3016320000 -200 45 6.8810043 149.2032 -200 45 -200 45
3016380000 -200 45 6.9273353 148.84428 -200 45 -200 45
3016440000 -200 45 6.8805909 148.18449 -200 45 -200 45
3016500000 -200 45 6.9089928 147.75204 -200 45 -200 45
3016560000 -200 45 6.9321179 146.89583 -200 45 -200 45
3016620000 -200 45 6.936111 146.312 -200 45 -200 45
3016680000 -200 45 6.8992939 145.93898 -200 45 -200 45
3016740000 -200 45 6.916666 145.24281 -200 45 -200 45
3016800000 -200 45 6.8943667 144.98064 -200 45 -200 45
3016860000 -200 45 6.8625979 144.5869 -200 45 -200 45
3016920000 -200 45 6.8862081 143.834 -200 45 -200 45
3016980000 -200 45 6.9148088 143.4341 -200 45 -200 45
3017040000 -200 45 6.891191 142.82692 -200 45 -200 45
3017100000 -200 45 6.9356656 142.42032 -200 45 -200 45
3017160000 -200 45 6.8993263 142.33563 -200 45 -200 45
3017220000 -200 45 6.8786683 141.40999 -200 45 -200 45
3017280000 -200 45 6.876348 141.04953 -200 45 -200 45
3017340000 -200 45 6.8835897 140.48274 -200 45 -200 45
3017400000 -200 45 6.9021268 140.08456 -200 45 -200 45
3017460000 -200 45 6.8985691 139.49568 -200 45 -200 45
3017520000 -200 45 6.8271441 138.77516 -200 45 -200 45
3017580000 -200 45 6.881855 138.25966 -200 45 -200 45
3017640000 -200 45 6.8826141 137.84074 -200 45 -200 45
3017700000 -200 45 6.879601 137.39613 -200 45 -200 45
3017760000 -200 45 6.9150219 137.13524 -200 45 -200 45
3017820000 -200 45 6.9099669 136.53429 -200 45 -200 45
3017880000 -200 45 6.8402328 136.0827 -200 45 -200 45
3017940000 -200 45 6.8797498 135.48167 -200 45 -200 45
3018000000 -200 45 6.9218426 134.92351 -200 45 -200 45
3018060000 -200 45 6.8802323 134.77618 -200 45 -200 45
3018120000 -200 45 6.8796282 133.97403 -200 45 -200 45
3018180000 -200 45 6.8461804 133.28038 -200 45 -200 45
3018240000 -200 45 6.9178014 133.26563 -200 45 -200 45
3018300000 -200 45 6.8662238 132.24895 -200 45 -200 45
3018360000 -200 45 6.8251128 131.9064 -200 45 -200 45
3018420000 -200 45 6.8842859 131.3548 -200 45 -200 45
3018480000 -200 45 6.8903775 131.02802 -200 45 -200 45
3018540000 -200 45 6.8779063 130.52689 -200 45 -200 45
3018600000 -200 45 6.8894567 130.25497 -200 45 -200 45
3018660000 -200 45 6.8480711 129.61046 -200 45 -200 45
3018720000 -200 45 6.9028506 129.13916 -200 45 -200 45
3018780000 -200 45 6.8482819 128.66423 -200 45 -200 45
3018840000 -200 45 6.8709936 127.86572 -200 45 -200 45
3018900000 -200 45 6.8627696 127.56762 -200 45 -200 45
3018960000 -200 45 6.826333 126.99001 -200 45 -200 45
3019020000 -200 45 6.8402109 126.08882 -200 45 -200 45
3019080000 -200 45 6.8618822 125.93691 -200 45 -200 45
3019140000 -200 45 6.8203077 125.59034 -200 45 -200 45
3019200000 -200 45 6.904057 124.85683 -200 45 -200 45
3019260000 -200 45 6.8992181 124.58667 -200 45 -200 45
3019320000 -200 45 6.8747535 123.9689 -200 45 -200 45
3019380000 -200 45 6.8851571 123.66628 -200 45 -200 45
3019440000 -200 45 6.9039741 122.72895 -200 45 -200 45
3019500000 -200 45 6.8771634 122.68221 -200 45 -200 45
3019560000 -200 45 6.8871388 122.09253 -200 45 -200 45
3019620000 -200 45 6.8760171 121.55157 -200 45 -200 45
3019680000 -200 45 6.8568025 121.09708 -200 45 -200 45
3019740000 -200 45 6.8237228 120.59296 -200 45 -200 45
3019800000 -200 45 6.8322806 120.08926 -200 45 -200 45
3019860000 -200 45 6.8091297 119.50293 -200 45 -200 45
3019920000 -200 45 6.8287988 118.90814 -200 45 -200 45
3019980000 -200 45 6.848073 118.64979 -200 45 -200 45
3020040000 -200 45 6.8525558 117.93218 -200 45 -200 45
3020100000 -200 45 6.841857 117.79292 -200 45 -200 45
3020160000 -200 45 6.8781538 117.20311 -200 45 -200 45
3020220000 -200 45 6.827693 116.61907 -200 45 -200 45
3020280000 -200 45 6.8140917 116.39756 -200 45 -200 45
3020340000 -200 45 6.8178582 115.54343 -200 45 -200 45
3020400000 -200 45 6.8359075 115.47912 -200 45 -200 45
3020460000 -200 45 6.8222647 114.64933 -200 45 -200 45
3020520000 -200 45 6.8331289 114.04078 -200 45 -200 45
3020580000 -200 45 6.8262262 113.59647 -200 45 -200 45
3020640000 -200 45 6.8432584 113.07679 -200 45 -200 45
3020700000 -200 45 6.8820415 112.82343 -200 45 -200 45
3020760000 -200 45 6.8307376 112.28677 -200 45 -200 45
3020820000 -200 45 6.8597789 111.57987 -200 45 -200 45
3020880000 -200 45 6.8360944 111.27848 -200 45 -200 45
3020940000 -200 45 6.8491478 110.61283 -200 45 -200 45
3021000000 -200 45 6.8436413 110.12366 -200 45 -200 45
3021060000 -200 45 6.8532791 109.4279 -200 45 -200 45
3021120000 -200 45 6.8479915 109.14223 -200 45 -200 45
3021180000 -200 45 6.8546066 108.75627 -200 45 -200 45
3021240000 -200 45 6.8498268 108.05082 -200 45 -200 45
3021300000 -200 45 6.861588 107.50809 -200 45 -200 45
3021360000 -200 45 6.8519025 106.9665 -200 45 -200 45
